;$FILEVERSION=1.1
;$STARTTIME=44475.4114990394
;
;   C:\Users\uukucp\Desktop\log_reset_hmi\su12_resetr.trc
;
;   Start time: 06.10.2021 09:52:33.517.0
;   Generated by PCAN-View v4.2.5.569
;
;   Message Number
;   |         Time Offset (ms)
;   |         |        Type
;   |         |        |        ID (hex)
;   |         |        |        |     Data Length
;   |         |        |        |     |   Data Bytes (hex) ...
;   |         |        |        |     |   |
;---+--   ----+----  --+--  ----+---  +  -+ -- -- -- -- -- -- --
     1)         8.4  Rx         01E7  4  06 58 0C 00 
     2)        22.8  Rx         0705  0  RTR
     3)        23.0  Rx         0745  0  RTR
     4)        23.2  Rx         076C  0  RTR
     5)        23.7  Rx         0300  8  40 80 00 00 00 00 00 00 
     6)        23.9  Rx         0705  1  85 
     7)        27.4  Rx         0281  8  80 00 00 00 00 00 00 00 
     8)        32.5  Rx         076C  1  05 
     9)        52.8  Rx         0706  0  RTR
    10)        53.0  Rx         0706  1  05 
    11)        53.2  Rx         0746  0  RTR
    12)        53.4  Rx         076D  0  RTR
    13)        55.6  Rx         0260  4  04 23 3D 04 
    14)        56.2  Rx         0345  8  24 25 3D 04 00 00 00 00 
    15)        56.7  Rx         0746  1  05 
    16)        59.6  Rx         076D  1  05 
    17)        73.1  Rx         0300  8  41 80 00 00 00 00 00 00 
    18)        73.8  Rx         0282  8  81 00 00 00 00 00 00 00 
    19)        82.8  Rx         0707  0  RTR
    20)        83.0  Rx         0707  1  05 
    21)        83.2  Rx         0747  0  RTR
    22)        83.4  Rx         076E  0  RTR
    23)        85.4  Rx         0747  1  85 
    24)        92.8  Rx         076E  1  05 
    25)       112.8  Rx         0708  0  RTR
    26)       113.0  Rx         0708  1  05 
    27)       113.2  Rx         0748  0  RTR
    28)       113.4  Rx         076F  0  RTR
    29)       114.3  Rx         0748  1  85 
    30)       118.7  Rx         076F  1  05 
    31)       123.1  Rx         0300  8  42 80 00 00 00 00 00 00 
    32)       123.8  Rx         0283  8  82 00 00 00 00 00 00 00 
    33)       142.8  Rx         0709  0  RTR
    34)       143.0  Rx         0709  1  05 
    35)       143.2  Rx         0749  0  RTR
    36)       143.4  Rx         0770  0  RTR
    37)       148.0  Rx         0749  1  05 
    38)       148.5  Rx         0770  1  05 
    39)       172.8  Rx         070A  0  RTR
    40)       173.0  Rx         074A  0  RTR
    41)       173.2  Rx         070A  1  85 
    42)       173.4  Rx         0771  0  RTR
    43)       173.9  Rx         0300  8  43 80 00 00 00 00 00 00 
    44)       179.8  Rx         0284  8  83 00 00 00 00 00 00 00 
    45)       182.8  Rx         0771  1  05 
    46)       202.8  Rx         070B  0  RTR
    47)       203.0  Rx         070B  1  85 
    48)       203.2  Rx         074B  0  RTR
    49)       203.4  Rx         0772  0  RTR
    50)       206.6  Rx         0772  1  05 
    51)       206.8  Rx         074B  1  05 
    52)       223.1  Rx         0300  8  44 80 00 00 00 00 00 00 
    53)       230.9  Rx         0285  8  84 00 00 00 00 00 00 00 
    54)       232.8  Rx         070C  0  RTR
    55)       233.0  Rx         070C  1  85 
    56)       233.2  Rx         074C  0  RTR
    57)       233.4  Rx         0773  0  RTR
    58)       236.3  Rx         074C  1  05 
    59)       243.1  Rx         0773  1  05 
    60)       262.8  Rx         070D  0  RTR
    61)       263.0  Rx         070D  1  85 
    62)       263.2  Rx         074D  0  RTR
    63)       263.4  Rx         0774  0  RTR
    64)       264.3  Rx         074D  1  05 
    65)       270.4  Rx         0774  1  05 
    66)       273.1  Rx         0300  8  45 80 00 00 00 00 00 00 
    67)       276.3  Rx         0286  8  85 00 00 00 00 00 00 00 
    68)       292.8  Rx         070E  0  RTR
    69)       293.0  Rx         070E  1  05 
    70)       293.2  Rx         074E  0  RTR
    71)       294.1  Rx         074E  1  85 
    72)       322.8  Rx         070F  0  RTR
    73)       323.0  Rx         074F  0  RTR
    74)       323.2  Rx         0761  0  RTR
    75)       323.7  Rx         0300  8  46 80 00 00 00 00 00 00 
    76)       323.9  Rx         070F  1  05 
    77)       326.2  Rx         074F  1  05 
    78)       331.1  Rx         0761  1  85 
    79)       333.1  Rx         0287  8  86 00 00 00 00 00 00 00 
    80)       352.8  Rx         0710  0  RTR
    81)       353.0  Rx         0750  0  RTR
    82)       353.2  Rx         0762  0  RTR
    83)       353.6  Rx         0710  1  05 
    84)       355.2  Rx         0750  1  85 
    85)       358.2  Rx         0762  1  85 
    86)       373.1  Rx         0300  8  47 80 00 00 00 00 00 00 
    87)       381.6  Rx         0288  8  87 00 00 00 00 00 00 00 
    88)       382.8  Rx         0711  0  RTR
    89)       383.0  Rx         0711  1  05 
    90)       383.2  Rx         0751  0  RTR
    91)       383.4  Rx         0763  0  RTR
    92)       383.7  Rx         0751  1  05 
    93)       387.7  Rx         0763  1  85 
    94)       412.8  Rx         0712  0  RTR
    95)       413.0  Rx         0752  0  RTR
    96)       413.2  Rx         0764  0  RTR
    97)       413.4  Rx         0712  1  85 
    98)       417.8  Rx         0752  1  05 
    99)       418.9  Rx         0764  1  85 
   100)       423.1  Rx         0300  8  48 80 00 00 00 00 00 00 
   101)       427.2  Rx         0289  8  88 00 00 00 00 00 00 00 
   102)       442.8  Rx         0713  0  RTR
   103)       443.0  Rx         0713  1  85 
   104)       443.2  Rx         0753  0  RTR
   105)       443.4  Rx         0765  0  RTR
   106)       446.2  Rx         0753  1  05 
   107)       450.1  Rx         0765  1  85 
   108)       472.8  Rx         0714  0  RTR
   109)       473.0  Rx         0714  1  85 
   110)       473.2  Rx         0766  0  RTR
   111)       473.7  Rx         0300  8  49 80 00 00 00 00 00 00 
   112)       479.5  Rx         028A  8  89 00 00 00 00 00 00 00 
   113)       482.1  Rx         0766  1  85 
   114)       502.8  Rx         0701  0  RTR
   115)       503.0  Rx         0701  1  85 
   116)       503.2  Rx         0741  0  RTR
   117)       503.4  Rx         0767  0  RTR
   118)       505.2  Rx         0741  1  05 
   119)       508.1  Rx         0767  1  85 
   120)       523.1  Rx         0300  8  4A 80 00 00 00 00 00 00 
   121)       528.5  Rx         028B  8  8A 00 00 00 00 00 00 00 
   122)       532.8  Rx         0702  0  RTR
   123)       533.1  Rx         0702  1  05 
   124)       533.2  Rx         0742  0  RTR
   125)       533.4  Rx         0768  0  RTR
   126)       535.8  Rx         0742  1  05 
   127)       538.4  Rx         0768  1  85 
   128)       562.8  Rx         0703  0  RTR
   129)       563.0  Rx         0743  0  RTR
   130)       563.2  Rx         0769  0  RTR
   131)       563.6  Rx         0703  1  05 
   132)       565.2  Rx         0743  1  05 
   133)       567.0  Rx         0769  1  85 
   134)       573.1  Rx         0300  8  4B 80 00 00 00 00 00 00 
   135)       579.0  Rx         028C  8  8B 00 00 00 00 00 00 00 
   136)       592.8  Rx         0704  0  RTR
   137)       593.0  Rx         0704  1  05 
   138)       593.2  Rx         0744  0  RTR
   139)       593.4  Rx         076A  0  RTR
   140)       595.1  Rx         076A  1  85 
   141)       598.0  Rx         0744  1  85 
   142)       622.8  Rx         0705  0  RTR
   143)       623.0  Rx         0745  0  RTR
   144)       623.2  Rx         076B  0  RTR
   145)       623.7  Rx         0300  8  4C 80 00 00 00 00 00 00 
   146)       623.9  Rx         0705  1  05 
   147)       629.3  Rx         076B  1  85 
   148)       632.5  Rx         028D  8  8C 00 00 00 00 00 00 00 
   149)       652.8  Rx         0706  0  RTR
   150)       653.0  Rx         0706  1  85 
   151)       653.2  Rx         0746  0  RTR
   152)       653.4  Rx         076C  0  RTR
   153)       656.6  Rx         0746  1  85 
   154)       662.5  Rx         076C  1  85 
   155)       673.1  Rx         0300  8  4D 80 00 00 00 00 00 00 
   156)       681.1  Rx         028E  8  8D 00 00 00 00 00 00 00 
   157)       682.8  Rx         0707  0  RTR
   158)       683.0  Rx         0707  1  85 
   159)       683.2  Rx         0747  0  RTR
   160)       683.4  Rx         076D  0  RTR
   161)       685.3  Rx         0747  1  05 
   162)       689.5  Rx         076D  1  85 
   163)       712.8  Rx         0708  0  RTR
   164)       713.0  Rx         0708  1  85 
   165)       713.2  Rx         0748  0  RTR
   166)       713.4  Rx         076E  0  RTR
   167)       714.3  Rx         0748  1  05 
   168)       722.7  Rx         076E  1  85 
   169)       723.3  Rx         0300  8  4E 80 00 00 00 00 00 00 
   170)       730.1  Rx         028F  8  8E 00 00 00 00 00 00 00 
   171)       742.8  Rx         0709  0  RTR
   172)       743.0  Rx         0709  1  85 
   173)       743.2  Rx         0749  0  RTR
   174)       743.4  Rx         076F  0  RTR
   175)       748.0  Rx         0749  1  85 
   176)       748.7  Rx         076F  1  85 
   177)       772.8  Rx         070A  0  RTR
   178)       773.0  Rx         070A  1  05 
   179)       773.2  Rx         074A  0  RTR
   180)       773.4  Rx         0770  0  RTR
   181)       773.9  Rx         0300  8  4F 80 00 00 00 00 00 00 
   182)       777.4  Rx         074A  1  05 
   183)       778.5  Rx         0770  1  85 
   184)       779.8  Rx         0290  8  8F 00 00 00 00 00 00 00 
   185)       802.8  Rx         070B  0  RTR
   186)       803.0  Rx         070B  1  05 
   187)       803.2  Rx         074B  0  RTR
   188)       803.4  Rx         0771  0  RTR
   189)       806.8  Rx         074B  1  85 
   190)       812.8  Rx         0771  1  85 
   191)       823.1  Rx         0300  8  50 80 00 00 00 00 00 00 
   192)       829.2  Rx         0291  8  90 00 00 00 00 00 00 00 
   193)       832.8  Rx         070C  0  RTR
   194)       833.0  Rx         074C  0  RTR
   195)       833.2  Rx         070C  1  05 
   196)       833.4  Rx         0772  0  RTR
   197)       836.2  Rx         074C  1  85 
   198)       836.6  Rx         0772  1  85 
   199)       862.8  Rx         070D  0  RTR
   200)       863.1  Rx         070D  1  05 
   201)       863.2  Rx         074D  0  RTR
   202)       863.5  Rx         0773  0  RTR
   203)       864.3  Rx         074D  1  85 
   204)       873.1  Rx         0300  8  51 80 00 00 00 00 00 00 
   205)       873.4  Rx         0260  4  1F CA 01 00 
   206)       873.7  Rx         0773  1  85 
   207)       882.9  Rx         0292  8  91 00 00 00 00 00 00 00 
   208)       892.8  Rx         070E  0  RTR
   209)       893.0  Rx         070E  1  85 
   210)       893.2  Rx         074E  0  RTR
   211)       893.4  Rx         0774  0  RTR
   212)       894.1  Rx         074E  1  05 
   213)       900.4  Rx         0774  1  85 
   214)       922.8  Rx         070F  0  RTR
   215)       923.1  Rx         070F  1  85 
   216)       923.2  Rx         074F  0  RTR
   217)       923.7  Rx         0300  8  52 80 00 00 00 00 00 00 
   218)       926.2  Rx         074F  1  85 
   219)       927.8  Rx         0293  8  92 00 00 00 00 00 00 00 
   220)       952.8  Rx         0710  0  RTR
   221)       953.1  Rx         0710  1  85 
   222)       953.2  Rx         0750  0  RTR
   223)       953.4  Rx         0761  0  RTR
   224)       955.2  Rx         0750  1  05 
   225)       961.1  Rx         0761  1  05 
   226)       973.1  Rx         0300  8  53 80 00 00 00 00 00 00 
   227)       979.7  Rx         0294  8  93 00 00 00 00 00 00 00 
   228)       982.8  Rx         0711  0  RTR
   229)       983.0  Rx         0751  0  RTR
   230)       983.2  Rx         0711  1  85 
   231)       983.4  Rx         0762  0  RTR
   232)       983.6  Rx         0751  1  85 
   233)       988.2  Rx         0762  1  05 
   234)      1012.8  Rx         0712  0  RTR
   235)      1013.0  Rx         0752  0  RTR
   236)      1013.3  Rx         0712  1  05 
   237)      1013.4  Rx         0763  0  RTR
   238)      1017.7  Rx         0763  1  05 
   239)      1017.9  Rx         0752  1  85 
   240)      1023.1  Rx         0300  8  40 80 00 00 00 00 00 00 
   241)      1027.3  Rx         0281  8  80 00 00 00 00 00 00 00 
   242)      1042.8  Rx         0713  0  RTR
   243)      1043.0  Rx         0713  1  05 
   244)      1043.3  Rx         0753  0  RTR
   245)      1043.4  Rx         0764  0  RTR
   246)      1046.2  Rx         0753  1  85 
   247)      1048.9  Rx         0764  1  05 
   248)      1055.7  Rx         0260  4  0F 23 68 06 
   249)      1056.6  Rx         0350  8  2F 25 68 06 00 00 00 00 
   250)      1072.8  Rx         0714  0  RTR
   251)      1073.1  Rx         0714  1  05 
   252)      1073.2  Rx         0765  0  RTR
   253)      1073.8  Rx         0300  8  41 80 00 00 00 00 00 00 
   254)      1080.1  Rx         0765  1  05 
   255)      1083.7  Rx         0282  8  81 00 00 00 00 00 00 00 
   256)      1102.8  Rx         0701  0  RTR
   257)      1103.1  Rx         0701  1  05 
   258)      1103.2  Rx         0741  0  RTR
   259)      1103.5  Rx         0766  0  RTR
   260)      1105.2  Rx         0741  1  85 
   261)      1112.1  Rx         0766  1  05 
   262)      1123.1  Rx         0300  8  42 80 00 00 00 00 00 00 
   263)      1132.8  Rx         0702  0  RTR
   264)      1133.1  Rx         0702  1  85 
   265)      1133.2  Rx         0742  0  RTR
   266)      1133.7  Rx         0283  8  82 00 00 00 00 00 00 00 
   267)      1134.0  Rx         0767  0  RTR
   268)      1135.8  Rx         0742  1  85 
   269)      1138.1  Rx         0767  1  05 
   270)      1162.8  Rx         0703  0  RTR
   271)      1163.0  Rx         0743  0  RTR
   272)      1163.2  Rx         0768  0  RTR
   273)      1163.4  Rx         0703  1  85 
   274)      1165.2  Rx         0743  1  85 
   275)      1168.4  Rx         0768  1  05 
   276)      1173.1  Rx         0300  8  43 80 00 00 00 00 00 00 
   277)      1179.8  Rx         0284  8  83 00 00 00 00 00 00 00 
   278)      1192.8  Rx         0704  0  RTR
   279)      1193.0  Rx         0704  1  85 
   280)      1193.3  Rx         0744  0  RTR
   281)      1193.4  Rx         0769  0  RTR
   282)      1197.1  Rx         0769  1  05 
   283)      1198.0  Rx         0744  1  05 
   284)      1222.8  Rx         0705  0  RTR
   285)      1223.0  Rx         0705  1  85 
   286)      1223.3  Rx         0745  0  RTR
   287)      1223.4  Rx         076A  0  RTR
   288)      1223.9  Rx         0300  8  44 80 00 00 00 00 00 00 
   289)      1225.1  Rx         076A  1  05 
   290)      1228.3  Rx         0745  1  85 
   291)      1231.4  Rx         0285  8  84 00 00 00 00 00 00 00 
   292)      1252.8  Rx         0706  0  RTR
   293)      1253.1  Rx         0706  1  05 
   294)      1253.2  Rx         0746  0  RTR
   295)      1253.5  Rx         076B  0  RTR
   296)      1256.6  Rx         0746  1  05 
   297)      1259.3  Rx         076B  1  05 
   298)      1273.1  Rx         0300  8  45 80 00 00 00 00 00 00 
   299)      1276.2  Rx         0286  8  85 00 00 00 00 00 00 00 
   300)      1282.8  Rx         0707  0  RTR
   301)      1283.1  Rx         0707  1  05 
   302)      1283.2  Rx         0747  0  RTR
   303)      1283.5  Rx         076C  0  RTR
   304)      1285.3  Rx         0747  1  85 
   305)      1292.5  Rx         076C  1  05 
   306)      1312.9  Rx         0708  0  RTR
   307)      1313.1  Rx         0708  1  05 
   308)      1313.2  Rx         0748  0  RTR
   309)      1313.4  Rx         076D  0  RTR
   310)      1314.3  Rx         0748  1  85 
   311)      1319.5  Rx         076D  1  05 
   312)      1323.1  Rx         0300  8  46 80 00 00 00 00 00 00 
   313)      1333.0  Rx         0287  8  86 00 00 00 00 00 00 00 
   314)      1342.8  Rx         0709  0  RTR
   315)      1343.1  Rx         0709  1  05 
   316)      1343.2  Rx         0749  0  RTR
   317)      1343.4  Rx         076E  0  RTR
   318)      1348.0  Rx         0749  1  05 
   319)      1352.8  Rx         076E  1  05 
   320)      1372.8  Rx         070A  0  RTR
   321)      1373.1  Rx         070A  1  85 
   322)      1373.3  Rx         074A  0  RTR
   323)      1373.4  Rx         076F  0  RTR
   324)      1373.9  Rx         0300  8  47 80 00 00 00 00 00 00 
   325)      1377.4  Rx         074A  1  85 
   326)      1378.7  Rx         076F  1  05 
   327)      1381.5  Rx         0288  8  87 00 00 00 00 00 00 00 
   328)      1402.8  Rx         070B  0  RTR
   329)      1403.0  Rx         070B  1  85 
   330)      1403.3  Rx         074B  0  RTR
   331)      1403.4  Rx         0770  0  RTR
   332)      1406.8  Rx         074B  1  05 
   333)      1408.5  Rx         0770  1  05 
   334)      1423.1  Rx         0300  8  48 80 00 00 00 00 00 00 
   335)      1426.6  Rx         0289  8  88 00 00 00 00 00 00 00 
   336)      1432.8  Rx         070C  0  RTR
   337)      1433.0  Rx         074C  0  RTR
   338)      1433.3  Rx         070C  1  85 
   339)      1433.4  Rx         0771  0  RTR
   340)      1436.2  Rx         074C  1  05 
   341)      1442.9  Rx         0771  1  05 
   342)      1462.8  Rx         070D  0  RTR
   343)      1463.1  Rx         070D  1  85 
   344)      1463.2  Rx         074D  0  RTR
   345)      1463.5  Rx         0772  0  RTR
   346)      1464.3  Rx         074D  1  05 
   347)      1466.6  Rx         0772  1  05 
   348)      1473.1  Rx         0300  8  49 80 00 00 00 00 00 00 
   349)      1479.0  Rx         028A  8  89 00 00 00 00 00 00 00 
   350)      1492.8  Rx         070E  0  RTR
   351)      1493.0  Rx         074E  0  RTR
   352)      1493.2  Rx         070E  1  05 
   353)      1493.5  Rx         0773  0  RTR
   354)      1494.1  Rx         074E  1  85 
   355)      1503.1  Rx         0773  1  05 
   356)      1522.8  Rx         070F  0  RTR
   357)      1523.0  Rx         074F  0  RTR
   358)      1523.2  Rx         0774  0  RTR
   359)      1523.7  Rx         0300  8  4A 80 00 00 00 00 00 00 
   360)      1524.0  Rx         070F  1  05 
   361)      1526.2  Rx         074F  1  05 
   362)      1528.5  Rx         028B  8  8A 00 00 00 00 00 00 00 
   363)      1530.4  Rx         0774  1  05 
   364)      1552.8  Rx         0710  0  RTR
   365)      1553.0  Rx         0750  0  RTR
   366)      1553.3  Rx         0710  1  05 
   367)      1555.2  Rx         0750  1  85 
   368)      1573.3  Rx         0300  8  4B 80 00 00 00 00 00 00 
   369)      1579.0  Rx         028C  8  8B 00 00 00 00 00 00 00 
   370)      1582.8  Rx         0711  0  RTR
   371)      1583.0  Rx         0751  0  RTR
   372)      1583.3  Rx         0711  1  05 
   373)      1583.4  Rx         0761  0  RTR
   374)      1583.7  Rx         0751  1  05 
   375)      1591.1  Rx         0761  1  85 
   376)      1612.8  Rx         0712  0  RTR
   377)      1613.0  Rx         0752  0  RTR
   378)      1613.3  Rx         0712  1  85 
   379)      1613.5  Rx         0762  0  RTR
   380)      1618.2  Rx         0762  1  85 
   381)      1623.2  Rx         0300  8  4C 80 00 00 00 00 00 00 
   382)      1632.5  Rx         028D  8  8C 00 00 00 00 00 00 00 
   383)      1642.8  Rx         0713  0  RTR
   384)      1643.1  Rx         0713  1  85 
   385)      1643.2  Rx         0753  0  RTR
   386)      1643.5  Rx         0763  0  RTR
   387)      1646.1  Rx         0753  1  05 
   388)      1647.7  Rx         0763  1  85 
   389)      1672.9  Rx         0714  0  RTR
   390)      1673.0  Rx         0764  0  RTR
   391)      1673.5  Rx         0300  8  4D 80 00 00 00 00 00 00 
   392)      1673.8  Rx         0714  1  85 
   393)      1678.9  Rx         0764  1  85 
   394)      1681.1  Rx         028E  8  8D 00 00 00 00 00 00 00 
   395)      1702.9  Rx         0701  0  RTR
   396)      1703.1  Rx         0701  1  85 
   397)      1703.3  Rx         0741  0  RTR
   398)      1703.4  Rx         0765  0  RTR
   399)      1705.2  Rx         0741  1  05 
   400)      1710.1  Rx         0765  1  85 
   401)      1723.1  Rx         0300  8  4E 80 00 00 00 00 00 00 
   402)      1730.0  Rx         028F  8  8E 00 00 00 00 00 00 00 
   403)      1732.8  Rx         0702  0  RTR
   404)      1733.1  Rx         0702  1  05 
   405)      1733.3  Rx         0742  0  RTR
   406)      1733.4  Rx         0766  0  RTR
   407)      1735.8  Rx         0742  1  05 
   408)      1742.1  Rx         0766  1  85 
   409)      1762.8  Rx         0703  0  RTR
   410)      1763.1  Rx         0703  1  05 
   411)      1763.3  Rx         0743  0  RTR
   412)      1763.5  Rx         0767  0  RTR
   413)      1765.2  Rx         0743  1  05 
   414)      1768.1  Rx         0767  1  85 
   415)      1773.2  Rx         0300  8  4F 80 00 00 00 00 00 00 
   416)      1779.8  Rx         0290  8  8F 00 00 00 00 00 00 00 
   417)      1792.8  Rx         0704  0  RTR
   418)      1793.1  Rx         0704  1  05 
   419)      1793.3  Rx         0744  0  RTR
   420)      1793.5  Rx         0768  0  RTR
   421)      1798.0  Rx         0744  1  85 
   422)      1798.4  Rx         0768  1  85 
   423)      1822.8  Rx         0705  0  RTR
   424)      1823.1  Rx         0705  1  05 
   425)      1823.3  Rx         0745  0  RTR
   426)      1823.5  Rx         0769  0  RTR
   427)      1824.0  Rx         0300  8  50 80 00 00 00 00 00 00 
   428)      1827.0  Rx         0769  1  85 
   429)      1828.3  Rx         0745  1  05 
   430)      1829.2  Rx         0291  8  90 00 00 00 00 00 00 00 
   431)      1852.9  Rx         0706  0  RTR
   432)      1853.1  Rx         0706  1  85 
   433)      1853.3  Rx         0746  0  RTR
   434)      1853.5  Rx         076A  0  RTR
   435)      1855.2  Rx         076A  1  85 
   436)      1856.6  Rx         0746  1  85 
   437)      1873.1  Rx         0300  8  51 80 00 00 00 00 00 00 
   438)      1882.1  Rx         0292  8  91 00 00 00 00 00 00 00 
   439)      1882.9  Rx         0707  0  RTR
   440)      1883.1  Rx         0707  1  85 
   441)      1883.3  Rx         0747  0  RTR
   442)      1883.5  Rx         076B  0  RTR
   443)      1885.3  Rx         0747  1  05 
   444)      1889.4  Rx         076B  1  85 
   445)      1912.9  Rx         0708  0  RTR
   446)      1913.0  Rx         0748  0  RTR
   447)      1913.3  Rx         0708  1  85 
   448)      1913.5  Rx         076C  0  RTR
   449)      1914.3  Rx         0748  1  05 
   450)      1922.5  Rx         076C  1  85 
   451)      1923.1  Rx         0300  8  52 80 00 00 00 00 00 00 
   452)      1927.8  Rx         0293  8  92 00 00 00 00 00 00 00 
   453)      1942.8  Rx         0709  0  RTR
   454)      1943.1  Rx         0709  1  85 
   455)      1943.3  Rx         0749  0  RTR
   456)      1943.4  Rx         076D  0  RTR
   457)      1949.5  Rx         076D  1  85 
   458)      1972.8  Rx         070A  0  RTR
   459)      1973.1  Rx         074A  0  RTR
   460)      1973.3  Rx         076E  0  RTR
   461)      1973.7  Rx         0300  8  53 80 00 00 00 00 00 00 
   462)      1974.0  Rx         070A  1  05 
   463)      1977.4  Rx         074A  1  05 
   464)      1979.7  Rx         0294  8  93 00 00 00 00 00 00 00 
   465)      1982.8  Rx         076E  1  85 
   466)      2002.8  Rx         070B  0  RTR
   467)      2003.1  Rx         070B  1  05 
   468)      2003.3  Rx         074B  0  RTR
   469)      2003.5  Rx         076F  0  RTR
   470)      2006.8  Rx         074B  1  85 
   471)      2008.7  Rx         076F  1  85 
   472)      2023.1  Rx         0300  8  40 80 00 00 00 00 00 00 
   473)      2027.3  Rx         0281  8  80 00 00 00 00 00 00 00 
   474)      2032.9  Rx         070C  0  RTR
   475)      2033.0  Rx         074C  0  RTR
   476)      2033.3  Rx         070C  1  05 
   477)      2033.5  Rx         0770  0  RTR
   478)      2036.2  Rx         074C  1  85 
   479)      2038.5  Rx         0770  1  85 
   480)      2048.7  Rx         01E8  4  07 58 0C 00 
   481)      2055.6  Rx         0260  4  05 23 F6 02 
   482)      2056.3  Rx         0346  8  25 25 F6 02 00 00 00 00 
   483)      2062.9  Rx         070D  0  RTR
   484)      2063.1  Rx         070D  1  05 
   485)      2063.3  Rx         074D  0  RTR
   486)      2063.5  Rx         0771  0  RTR
   487)      2064.2  Rx         074D  1  85 
   488)      2072.8  Rx         0771  1  85 
   489)      2073.4  Rx         0300  8  41 80 00 00 00 00 00 00 
   490)      2083.7  Rx         0282  8  81 00 00 00 00 00 00 00 
   491)      2092.9  Rx         070E  0  RTR
   492)      2093.0  Rx         074E  0  RTR
   493)      2093.3  Rx         070E  1  85 
   494)      2093.5  Rx         0772  0  RTR
   495)      2094.1  Rx         074E  1  05 
   496)      2096.6  Rx         0772  1  85 
   497)      2122.9  Rx         070F  0  RTR
   498)      2123.1  Rx         070F  1  85 
   499)      2123.3  Rx         074F  0  RTR
   500)      2123.5  Rx         0773  0  RTR
   501)      2124.0  Rx         0300  8  42 80 00 00 00 00 00 00 
   502)      2126.2  Rx         074F  1  85 
   503)      2133.1  Rx         0773  1  85 
   504)      2133.7  Rx         0283  8  82 00 00 00 00 00 00 00 
   505)      2152.8  Rx         0710  0  RTR
   506)      2153.1  Rx         0710  1  85 
   507)      2153.3  Rx         0750  0  RTR
   508)      2153.5  Rx         0774  0  RTR
   509)      2155.2  Rx         0750  1  05 
   510)      2160.4  Rx         0774  1  85 
   511)      2173.2  Rx         0300  8  43 80 00 00 00 00 00 00 
   512)      2179.8  Rx         0284  8  83 00 00 00 00 00 00 00 
   513)      2182.8  Rx         0711  0  RTR
   514)      2183.1  Rx         0711  1  85 
   515)      2183.3  Rx         0751  0  RTR
   516)      2183.6  Rx         0751  1  85 
   517)      2193.1  Rx         01F1  4  10 58 03 00 
   518)      2212.9  Rx         0712  0  RTR
   519)      2213.0  Rx         0752  0  RTR
   520)      2213.3  Rx         0761  0  RTR
   521)      2213.8  Rx         0712  1  05 
   522)      2217.7  Rx         0752  1  85 
   523)      2221.2  Rx         0761  1  05 
   524)      2223.2  Rx         0300  8  44 80 00 00 00 00 00 00 
   525)      2231.0  Rx         0285  8  84 00 00 00 00 00 00 00 
   526)      2242.9  Rx         0713  0  RTR
   527)      2243.1  Rx         0713  1  05 
   528)      2243.3  Rx         0753  0  RTR
   529)      2243.5  Rx         0762  0  RTR
   530)      2246.1  Rx         0753  1  85 
   531)      2248.2  Rx         0762  1  05 
   532)      2272.9  Rx         0714  0  RTR
   533)      2273.1  Rx         0714  1  05 
   534)      2273.3  Rx         0763  0  RTR
   535)      2273.8  Rx         0300  8  45 80 00 00 00 00 00 00 
   536)      2276.1  Rx         0286  8  85 00 00 00 00 00 00 00 
   537)      2277.7  Rx         0763  1  05 
   538)      2302.9  Rx         0701  0  RTR
   539)      2303.1  Rx         0701  1  05 
   540)      2303.3  Rx         0741  0  RTR
   541)      2303.5  Rx         0764  0  RTR
   542)      2305.2  Rx         0741  1  85 
   543)      2308.9  Rx         0764  1  05 
   544)      2323.2  Rx         0300  8  46 80 00 00 00 00 00 00 
   545)      2333.0  Rx         0287  8  86 00 00 00 00 00 00 00 
   546)      2333.2  Rx         0702  0  RTR
   547)      2333.4  Rx         0742  0  RTR
   548)      2333.6  Rx         0702  1  85 
   549)      2333.8  Rx         0765  0  RTR
   550)      2335.7  Rx         0742  1  85 
   551)      2340.1  Rx         0765  1  05 
   552)      2362.9  Rx         0703  0  RTR
   553)      2363.1  Rx         0743  0  RTR
   554)      2363.3  Rx         0703  1  85 
   555)      2363.5  Rx         0766  0  RTR
   556)      2372.1  Rx         0766  1  05 
   557)      2373.2  Rx         0300  8  47 80 00 00 00 00 00 00 
   558)      2381.5  Rx         0288  8  87 00 00 00 00 00 00 00 
   559)      2392.9  Rx         0704  0  RTR
   560)      2393.1  Rx         0704  1  85 
   561)      2393.3  Rx         0744  0  RTR
   562)      2393.5  Rx         0767  0  RTR
   563)      2398.0  Rx         0744  1  05 
   564)      2398.2  Rx         0767  1  05 
   565)      2422.9  Rx         0705  0  RTR
   566)      2423.0  Rx         0745  0  RTR
   567)      2423.3  Rx         0705  1  85 
   568)      2423.5  Rx         0768  0  RTR
   569)      2424.0  Rx         0300  8  48 80 00 00 00 00 00 00 
   570)      2426.6  Rx         0289  8  88 00 00 00 00 00 00 00 
   571)      2428.2  Rx         0745  1  85 
   572)      2428.5  Rx         0768  1  05 
   573)      2452.9  Rx         0706  0  RTR
   574)      2453.1  Rx         0706  1  05 
   575)      2453.3  Rx         0746  0  RTR
   576)      2453.5  Rx         0769  0  RTR
   577)      2456.6  Rx         0746  1  05 
   578)      2457.0  Rx         0769  1  05 
   579)      2473.2  Rx         0300  8  49 80 00 00 00 00 00 00 
   580)      2478.9  Rx         028A  8  89 00 00 00 00 00 00 00 
   581)      2482.9  Rx         0707  0  RTR
   582)      2483.1  Rx         0707  1  05 
   583)      2483.3  Rx         0747  0  RTR
   584)      2483.5  Rx         076A  0  RTR
   585)      2485.2  Rx         076A  1  05 
   586)      2485.4  Rx         0747  1  85 
   587)      2512.9  Rx         0708  0  RTR
   588)      2513.1  Rx         0708  1  05 
   589)      2513.3  Rx         0748  0  RTR
   590)      2513.5  Rx         076B  0  RTR
   591)      2514.2  Rx         0748  1  85 
   592)      2519.4  Rx         076B  1  05 
   593)      2523.2  Rx         0300  8  4A 80 00 00 00 00 00 00 
   594)      2528.4  Rx         028B  8  8A 00 00 00 00 00 00 00 
   595)      2542.8  Rx         0709  0  RTR
   596)      2543.1  Rx         0709  1  05 
   597)      2543.3  Rx         0749  0  RTR
   598)      2543.5  Rx         076C  0  RTR
   599)      2548.0  Rx         0749  1  05 
   600)      2552.5  Rx         076C  1  05 
   601)      2572.9  Rx         070A  0  RTR
   602)      2573.1  Rx         074A  0  RTR
   603)      2573.3  Rx         076D  0  RTR
   604)      2573.7  Rx         0300  8  4B 80 00 00 00 00 00 00 
   605)      2574.0  Rx         070A  1  85 
   606)      2577.3  Rx         074A  1  85 
   607)      2578.9  Rx         028C  8  8B 00 00 00 00 00 00 00 
   608)      2579.5  Rx         076D  1  05 
   609)      2602.9  Rx         070B  0  RTR
   610)      2603.1  Rx         070B  1  85 
   611)      2603.3  Rx         074B  0  RTR
   612)      2603.5  Rx         076E  0  RTR
   613)      2606.8  Rx         074B  1  05 
   614)      2612.8  Rx         076E  1  05 
   615)      2623.2  Rx         0300  8  4C 80 00 00 00 00 00 00 
   616)      2632.4  Rx         028D  8  8C 00 00 00 00 00 00 00 
   617)      2632.9  Rx         070C  0  RTR
   618)      2633.0  Rx         074C  0  RTR
   619)      2633.3  Rx         076F  0  RTR
   620)      2633.5  Rx         070C  1  85 
   621)      2636.2  Rx         074C  1  05 
   622)      2638.8  Rx         076F  1  05 
   623)      2662.9  Rx         070D  0  RTR
   624)      2663.1  Rx         070D  1  85 
   625)      2663.3  Rx         074D  0  RTR
   626)      2663.5  Rx         0770  0  RTR
   627)      2664.2  Rx         074D  1  05 
   628)      2668.5  Rx         0770  1  05 
   629)      2673.2  Rx         0300  8  4D 80 00 00 00 00 00 00 
   630)      2681.1  Rx         028E  8  8D 00 00 00 00 00 00 00 
   631)      2692.9  Rx         070E  0  RTR
   632)      2693.1  Rx         070E  1  05 
   633)      2693.3  Rx         074E  0  RTR
   634)      2693.5  Rx         0771  0  RTR
   635)      2694.1  Rx         074E  1  85 
   636)      2702.9  Rx         0771  1  05 
   637)      2722.9  Rx         070F  0  RTR
   638)      2723.1  Rx         074F  0  RTR
   639)      2723.3  Rx         070F  1  05 
   640)      2723.5  Rx         0772  0  RTR
   641)      2724.0  Rx         0300  8  4E 80 00 00 00 00 00 00 
   642)      2726.1  Rx         074F  1  05 
   643)      2726.6  Rx         0772  1  05 
   644)      2730.1  Rx         028F  8  8E 00 00 00 00 00 00 00 
   645)      2752.9  Rx         0710  0  RTR
   646)      2753.1  Rx         0710  1  05 
   647)      2753.3  Rx         0750  0  RTR
   648)      2753.5  Rx         0773  0  RTR
   649)      2755.2  Rx         0750  1  85 
   650)      2763.1  Rx         0773  1  05 
   651)      2773.2  Rx         0300  8  4F 80 00 00 00 00 00 00 
   652)      2779.8  Rx         0290  8  8F 00 00 00 00 00 00 00 
   653)      2782.9  Rx         0711  0  RTR
   654)      2783.1  Rx         0711  1  05 
   655)      2783.3  Rx         0751  0  RTR
   656)      2783.5  Rx         0774  0  RTR
   657)      2783.7  Rx         0751  1  05 
   658)      2790.4  Rx         0774  1  05 
   659)      2812.9  Rx         0712  0  RTR
   660)      2813.1  Rx         0712  1  85 
   661)      2813.3  Rx         0752  0  RTR
   662)      2823.2  Rx         0300  8  50 80 00 00 00 00 00 00 
   663)      2829.2  Rx         0291  8  90 00 00 00 00 00 00 00 
   664)      2842.9  Rx         0713  0  RTR
   665)      2843.1  Rx         0753  0  RTR
   666)      2843.3  Rx         0713  1  85 
   667)      2843.5  Rx         0761  0  RTR
   668)      2846.1  Rx         0753  1  05 
   669)      2851.1  Rx         0761  1  85 
   670)      2872.9  Rx         0714  0  RTR
   671)      2873.2  Rx         01D4  4  33 01 04 02 
   672)      2873.5  Rx         0714  1  85 
   673)      2873.6  Rx         0762  0  RTR
   674)      2874.1  Rx         0300  8  51 80 00 00 00 00 00 00 
   675)      2874.5  Rx         0260  4  1F CA 01 00 
   676)      2878.2  Rx         0762  1  85 
   677)      2882.1  Rx         0292  8  91 00 00 00 00 00 00 00 
   678)      2902.9  Rx         0701  0  RTR
   679)      2903.1  Rx         0701  1  85 
   680)      2903.4  Rx         0741  0  RTR
   681)      2903.5  Rx         0763  0  RTR
   682)      2905.2  Rx         0741  1  05 
   683)      2907.7  Rx         0763  1  85 
   684)      2923.2  Rx         0300  8  52 80 00 00 00 00 00 00 
   685)      2927.8  Rx         0293  8  92 00 00 00 00 00 00 00 
   686)      2932.9  Rx         0702  0  RTR
   687)      2933.1  Rx         0702  1  05 
   688)      2933.3  Rx         0742  0  RTR
   689)      2933.5  Rx         0764  0  RTR
   690)      2935.8  Rx         0742  1  05 
   691)      2938.9  Rx         0764  1  85 
   692)      2962.9  Rx         0703  0  RTR
   693)      2963.1  Rx         0743  0  RTR
   694)      2963.3  Rx         0765  0  RTR
   695)      2963.9  Rx         0703  1  05 
   696)      2965.2  Rx         0743  1  05 
   697)      2970.2  Rx         0765  1  85 
   698)      2973.2  Rx         0300  8  53 80 00 00 00 00 00 00 
   699)      2979.7  Rx         0294  8  93 00 00 00 00 00 00 00 
   700)      2992.9  Rx         0704  0  RTR
   701)      2993.2  Rx         0704  1  05 
   702)      2993.3  Rx         0744  0  RTR
   703)      2993.5  Rx         0766  0  RTR
   704)      2998.0  Rx         0744  1  85 
   705)      3002.1  Rx         0766  1  85 
   706)      3022.9  Rx         0705  0  RTR
   707)      3023.1  Rx         0745  0  RTR
   708)      3023.3  Rx         0767  0  RTR
   709)      3023.8  Rx         0300  8  40 80 00 00 00 00 00 00 
   710)      3024.1  Rx         0705  1  05 
   711)      3027.3  Rx         0281  8  80 00 00 00 00 00 00 00 
   712)      3028.1  Rx         0767  1  85 
   713)      3028.4  Rx         0745  1  05 
   714)      3052.9  Rx         0706  0  RTR
   715)      3053.1  Rx         0706  1  85 
   716)      3053.3  Rx         0746  0  RTR
   717)      3053.5  Rx         0768  0  RTR
   718)      3055.6  Rx         0260  4  0E 23 66 10 
   719)      3056.6  Rx         0746  1  85 
   720)      3057.1  Rx         034F  8  2E 25 66 10 00 00 00 00 
   721)      3058.5  Rx         0768  1  85 
   722)      3073.2  Rx         0300  8  41 80 00 00 00 00 00 00 
   723)      3082.9  Rx         0707  0  RTR
   724)      3083.1  Rx         0707  1  85 
   725)      3083.4  Rx         0747  0  RTR
   726)      3083.8  Rx         0282  8  81 00 00 00 00 00 00 00 
   727)      3084.0  Rx         0769  0  RTR
   728)      3085.3  Rx         0747  1  05 
   729)      3087.1  Rx         0769  1  85 
   730)      3112.9  Rx         0708  0  RTR
   731)      3113.1  Rx         0708  1  85 
   732)      3113.3  Rx         0748  0  RTR
   733)      3113.5  Rx         076A  0  RTR
   734)      3114.2  Rx         0748  1  05 
   735)      3115.2  Rx         076A  1  85 
   736)      3123.0  Rx         0000  2  81 54 
   737)      3123.5  Rx         0300  8  42 80 00 00 00 00 00 00 
   738)      3134.2  Rx         0283  8  82 00 00 00 00 00 00 00 
   739)      3142.9  Rx         0709  0  RTR
   740)      3143.2  Rx         0709  1  85 
   741)      3143.3  Rx         0749  0  RTR
   742)      3143.5  Rx         076B  0  RTR
   743)      3148.0  Rx         0749  1  85 
   744)      3149.4  Rx         076B  1  85 
   745)      3172.9  Rx         070A  0  RTR
   746)      3173.1  Rx         074A  0  RTR
   747)      3173.3  Rx         070A  1  05 
   748)      3173.5  Rx         076C  0  RTR
   749)      3174.0  Rx         0300  8  43 80 00 00 00 00 00 00 
   750)      3177.3  Rx         074A  1  05 
   751)      3179.7  Rx         0284  8  83 00 00 00 00 00 00 00 
   752)      3182.6  Rx         076C  1  85 
   753)      3202.9  Rx         070B  0  RTR
   754)      3203.2  Rx         070B  1  05 
   755)      3203.3  Rx         074B  0  RTR
   756)      3203.5  Rx         076D  0  RTR
   757)      3206.8  Rx         074B  1  85 
   758)      3209.6  Rx         076D  1  85 
   759)      3216.7  Rx         01F2  4  11 58 05 00 
   760)      3223.2  Rx         0300  8  44 80 00 00 00 00 00 00 
   761)      3230.8  Rx         0285  8  84 00 00 00 00 00 00 00 
   762)      3232.9  Rx         070C  0  RTR
   763)      3233.2  Rx         070C  1  05 
   764)      3233.3  Rx         074C  0  RTR
   765)      3233.5  Rx         076E  0  RTR
   766)      3236.2  Rx         074C  1  85 
   767)      3242.8  Rx         076E  1  85 
   768)      3262.9  Rx         070D  0  RTR
   769)      3263.1  Rx         070D  1  05 
   770)      3263.4  Rx         074D  0  RTR
   771)      3263.5  Rx         076F  0  RTR
   772)      3264.2  Rx         074D  1  85 
   773)      3268.8  Rx         076F  1  85 
   774)      3273.2  Rx         0300  8  45 80 00 00 00 00 00 00 
   775)      3276.2  Rx         0286  8  85 00 00 00 00 00 00 00 
   776)      3292.9  Rx         070E  0  RTR
   777)      3293.1  Rx         070E  1  85 
   778)      3293.3  Rx         074E  0  RTR
   779)      3293.5  Rx         0770  0  RTR
   780)      3294.1  Rx         074E  1  05 
   781)      3298.6  Rx         0770  1  85 
   782)      3322.9  Rx         070F  0  RTR
   783)      3323.1  Rx         074F  0  RTR
   784)      3323.3  Rx         0771  0  RTR
   785)      3323.8  Rx         0300  8  46 80 00 00 00 00 00 00 
   786)      3324.0  Rx         070F  1  85 
   787)      3326.2  Rx         074F  1  85 
   788)      3333.0  Rx         0287  8  86 00 00 00 00 00 00 00 
   789)      3333.2  Rx         0771  1  85 
   790)      3352.9  Rx         0710  0  RTR
   791)      3353.1  Rx         0750  0  RTR
   792)      3353.3  Rx         0772  0  RTR
   793)      3353.6  Rx         0710  1  85 
   794)      3355.2  Rx         0750  1  05 
   795)      3356.7  Rx         0772  1  85 
   796)      3373.2  Rx         0300  8  47 80 00 00 00 00 00 00 
   797)      3381.5  Rx         0288  8  87 00 00 00 00 00 00 00 
   798)      3382.9  Rx         0711  0  RTR
   799)      3383.2  Rx         0711  1  85 
   800)      3383.3  Rx         0751  0  RTR
   801)      3383.5  Rx         0773  0  RTR
   802)      3383.8  Rx         0751  1  85 
   803)      3393.1  Rx         0773  1  85 
   804)      3412.9  Rx         0712  0  RTR
   805)      3413.1  Rx         0752  0  RTR
   806)      3413.3  Rx         0774  0  RTR
   807)      3413.5  Rx         0712  1  05 
   808)      3417.7  Rx         0752  1  85 
   809)      3420.5  Rx         0774  1  85 
   810)      3423.2  Rx         0300  8  48 80 00 00 00 00 00 00 
   811)      3426.6  Rx         0289  8  88 00 00 00 00 00 00 00 
   812)      3442.9  Rx         0713  0  RTR
   813)      3443.2  Rx         0713  1  05 
   814)      3443.4  Rx         0753  0  RTR
   815)      3446.1  Rx         0753  1  85 
   816)      3472.9  Rx         0714  0  RTR
   817)      3473.2  Rx         0714  1  05 
   818)      3473.4  Rx         0761  0  RTR
   819)      3473.9  Rx         0300  8  49 80 00 00 00 00 00 00 
   820)      3479.5  Rx         028A  8  89 00 00 00 00 00 00 00 
   821)      3481.4  Rx         0761  1  05 
   822)      3502.9  Rx         0701  0  RTR
   823)      3503.2  Rx         0701  1  05 
   824)      3503.4  Rx         0741  0  RTR
   825)      3503.6  Rx         0762  0  RTR
   826)      3505.2  Rx         0741  1  85 
   827)      3508.2  Rx         0762  1  05 
   828)      3523.2  Rx         0300  8  4A 80 00 00 00 00 00 00 
   829)      3528.4  Rx         028B  8  8A 00 00 00 00 00 00 00 
   830)      3532.9  Rx         0702  0  RTR
   831)      3533.2  Rx         0702  1  85 
   832)      3533.3  Rx         0742  0  RTR
   833)      3533.6  Rx         0763  0  RTR
   834)      3535.7  Rx         0742  1  85 
   835)      3537.7  Rx         0763  1  05 
   836)      3562.9  Rx         0703  0  RTR
   837)      3563.1  Rx         0743  0  RTR
   838)      3563.3  Rx         0764  0  RTR
   839)      3563.7  Rx         0703  1  85 
   840)      3565.2  Rx         0743  1  85 
   841)      3569.0  Rx         0764  1  05 
   842)      3573.2  Rx         0300  8  4B 80 00 00 00 00 00 00 
   843)      3578.9  Rx         028C  8  8B 00 00 00 00 00 00 00 
   844)      3592.9  Rx         0704  0  RTR
   845)      3593.2  Rx         0704  1  85 
   846)      3593.4  Rx         0744  0  RTR
   847)      3593.5  Rx         0765  0  RTR
   848)      3598.0  Rx         0744  1  05 
   849)      3600.2  Rx         0765  1  05 
   850)      3622.9  Rx         0705  0  RTR
   851)      3623.1  Rx         0745  0  RTR
   852)      3623.4  Rx         0705  1  85 
   853)      3623.5  Rx         0766  0  RTR
   854)      3624.0  Rx         0300  8  4C 80 00 00 00 00 00 00 
   855)      3628.2  Rx         0745  1  85 
   856)      3632.1  Rx         0766  1  05 
   857)      3632.6  Rx         028D  8  8C 00 00 00 00 00 00 00 
   858)      3652.9  Rx         0706  0  RTR
   859)      3653.2  Rx         0706  1  05 
   860)      3653.4  Rx         0746  0  RTR
   861)      3653.5  Rx         0767  0  RTR
   862)      3656.6  Rx         0746  1  05 
   863)      3658.2  Rx         0767  1  05 
   864)      3673.2  Rx         0300  8  4D 80 00 00 00 00 00 00 
   865)      3681.0  Rx         028E  8  8D 00 00 00 00 00 00 00 
   866)      3682.9  Rx         0707  0  RTR
   867)      3683.2  Rx         0707  1  05 
   868)      3683.4  Rx         0747  0  RTR
   869)      3683.6  Rx         0768  0  RTR
   870)      3685.3  Rx         0747  1  85 
   871)      3688.5  Rx         0768  1  05 
   872)      3712.9  Rx         0708  0  RTR
   873)      3713.2  Rx         0708  1  05 
   874)      3713.3  Rx         0748  0  RTR
   875)      3713.6  Rx         0769  0  RTR
   876)      3717.1  Rx         0769  1  05 
   877)      3723.2  Rx         0300  8  4E 80 00 00 00 00 00 00 
   878)      3730.1  Rx         028F  8  8E 00 00 00 00 00 00 00 
   879)      3742.9  Rx         0709  0  RTR
   880)      3743.2  Rx         0709  1  05 
   881)      3743.3  Rx         0749  0  RTR
   882)      3743.6  Rx         076A  0  RTR
   883)      3745.2  Rx         076A  1  05 
   884)      3748.0  Rx         0749  1  05 
   885)      3773.0  Rx         070A  0  RTR
   886)      3773.1  Rx         074A  0  RTR
   887)      3773.4  Rx         070A  1  85 
   888)      3773.5  Rx         076B  0  RTR
   889)      3774.1  Rx         0300  8  4F 80 00 00 00 00 00 00 
   890)      3777.3  Rx         074A  1  85 
   891)      3779.4  Rx         076B  1  05 
   892)      3779.9  Rx         0290  8  8F 00 00 00 00 00 00 00 
   893)      3802.9  Rx         070B  0  RTR
   894)      3803.2  Rx         070B  1  85 
   895)      3803.3  Rx         074B  0  RTR
   896)      3803.5  Rx         076C  0  RTR
   897)      3806.8  Rx         074B  1  05 
   898)      3812.5  Rx         076C  1  05 
   899)      3823.3  Rx         0300  8  50 80 00 00 00 00 00 00 
   900)      3829.1  Rx         0291  8  90 00 00 00 00 00 00 00 
   901)      3832.9  Rx         070C  0  RTR
   902)      3833.1  Rx         074C  0  RTR
   903)      3833.4  Rx         070C  1  85 
   904)      3833.5  Rx         076D  0  RTR
   905)      3836.2  Rx         074C  1  05 
   906)      3839.6  Rx         076D  1  05 
   907)      3862.9  Rx         070D  0  RTR
   908)      3863.2  Rx         070D  1  85 
   909)      3863.4  Rx         074D  0  RTR
   910)      3863.6  Rx         076E  0  RTR
   911)      3864.2  Rx         074D  1  05 
   912)      3872.8  Rx         076E  1  05 
   913)      3873.3  Rx         0300  8  51 80 00 00 00 00 00 00 
   914)      3882.1  Rx         0292  8  D1 51 0C 55 D7 E3 F6 FA 
   915)      3892.9  Rx         070E  0  RTR
   916)      3893.2  Rx         070E  1  05 
   917)      3893.4  Rx         074E  0  RTR
   918)      3893.6  Rx         076F  0  RTR
   919)      3894.1  Rx         074E  1  85 
   920)      3898.8  Rx         076F  1  05 
   921)      3922.9  Rx         070F  0  RTR
   922)      3923.1  Rx         074F  0  RTR
   923)      3923.3  Rx         070F  1  05 
   924)      3923.6  Rx         0770  0  RTR
   925)      3924.1  Rx         0300  8  52 80 00 00 00 00 00 00 
   926)      3926.1  Rx         074F  1  05 
   927)      3927.7  Rx         0293  8  92 00 00 00 00 00 00 00 
   928)      3928.6  Rx         0770  1  05 
   929)      3952.9  Rx         0710  0  RTR
   930)      3953.1  Rx         0750  0  RTR
   931)      3953.4  Rx         0710  1  05 
   932)      3953.5  Rx         0771  0  RTR
   933)      3955.2  Rx         0750  1  85 
   934)      3962.9  Rx         0771  1  05 
   935)      3973.2  Rx         0300  8  53 80 00 00 00 00 00 00 
   936)      3979.6  Rx         0294  8  93 00 00 00 00 00 00 00 
   937)      3982.9  Rx         0711  0  RTR
   938)      3983.1  Rx         0711  1  05 
   939)      3983.4  Rx         0751  0  RTR
   940)      3983.5  Rx         0772  0  RTR
   941)      3983.8  Rx         0751  1  05 
   942)      3986.6  Rx         0772  1  05 
   943)      4012.9  Rx         0712  0  RTR
   944)      4013.1  Rx         0712  1  85 
   945)      4013.4  Rx         0752  0  RTR
   946)      4013.5  Rx         0773  0  RTR
   947)      4017.7  Rx         0752  1  05 
   948)      4023.2  Rx         0300  8  40 80 00 00 00 00 00 00 
   949)      4023.5  Rx         0773  1  05 
   950)      4027.2  Rx         0281  8  80 00 00 00 00 00 00 00 
   951)      4042.9  Rx         0713  0  RTR
   952)      4043.2  Rx         0713  1  85 
   953)      4043.3  Rx         0753  0  RTR
   954)      4043.6  Rx         0774  0  RTR
   955)      4046.1  Rx         0753  1  05 
   956)      4050.4  Rx         0774  1  05 
   957)      4055.6  Rx         0260  4  06 23 8D 0B 
   958)      4056.4  Rx         0347  8  26 25 8D 0B 00 00 00 00 
   959)      4072.9  Rx         0714  0  RTR
   960)      4073.4  Rx         0300  8  41 80 00 00 00 00 00 00 
   961)      4073.7  Rx         0714  1  85 
   962)      4083.7  Rx         0282  8  81 00 00 00 00 00 00 00 
   963)      4102.9  Rx         0701  0  RTR
   964)      4103.2  Rx         0701  1  85 
   965)      4103.3  Rx         0741  0  RTR
   966)      4103.5  Rx         0761  0  RTR
   967)      4105.1  Rx         0741  1  05 
   968)      4111.1  Rx         0761  1  85 
   969)      4113.1  Rx         0260  4  13 AC 01 00 
   970)      4123.2  Rx         07E5  8  04 01 00 00 00 00 00 00 
   971)      4123.7  Rx         0300  8  42 80 00 00 00 00 00 00 
   972)      4133.2  Rx         07E5  8  11 54 00 00 00 00 00 00 
   973)      4133.7  Rx         0283  8  82 00 00 00 00 00 00 00 
   974)      4133.9  Rx         0702  0  RTR
   975)      4134.1  Rx         0702  1  05 
   976)      4134.4  Rx         0742  0  RTR
   977)      4134.5  Rx         0762  0  RTR
   978)      4138.2  Rx         0762  1  85 
   979)      4162.9  Rx         0703  0  RTR
   980)      4163.1  Rx         0743  0  RTR
   981)      4163.3  Rx         0763  0  RTR
   982)      4163.5  Rx         0703  1  05 
   983)      4165.2  Rx         0743  1  05 
   984)      4167.8  Rx         0763  1  85 
   985)      4173.2  Rx         0300  8  43 80 00 00 00 00 00 00 
   986)      4179.7  Rx         0284  8  83 00 00 00 00 00 00 00 
   987)      4192.9  Rx         0704  0  RTR
   988)      4193.2  Rx         0704  1  05 
   989)      4193.4  Rx         0744  0  RTR
   990)      4193.6  Rx         0764  0  RTR
   991)      4197.9  Rx         0744  1  85 
   992)      4198.9  Rx         0764  1  85 
   993)      4222.9  Rx         0705  0  RTR
   994)      4223.1  Rx         0745  0  RTR
   995)      4223.4  Rx         0705  1  05 
   996)      4223.6  Rx         0765  0  RTR
   997)      4224.1  Rx         0300  8  44 80 00 00 00 00 00 00 
   998)      4228.2  Rx         0745  1  05 
   999)      4230.2  Rx         0765  1  85 
  1000)      4231.5  Rx         0285  8  84 00 00 00 00 00 00 00 
  1001)      4243.1  Rx         0260  4  13 AC 00 00 
  1002)      4252.9  Rx         0706  0  RTR
  1003)      4253.2  Rx         0706  1  85 
  1004)      4253.3  Rx         0746  0  RTR
  1005)      4253.6  Rx         0766  0  RTR
  1006)      4256.5  Rx         0746  1  85 
  1007)      4262.3  Rx         0766  1  85 
  1008)      4273.2  Rx         0300  8  45 80 00 00 00 00 00 00 
  1009)      4276.1  Rx         0286  8  85 00 00 00 00 00 00 00 
  1010)      4283.0  Rx         0707  0  RTR
  1011)      4283.2  Rx         0707  1  85 
  1012)      4283.3  Rx         0747  0  RTR
  1013)      4283.6  Rx         0767  0  RTR
  1014)      4285.3  Rx         0747  1  05 
  1015)      4288.2  Rx         0767  1  85 
  1016)      4312.9  Rx         0708  0  RTR
  1017)      4313.2  Rx         0708  1  85 
  1018)      4313.3  Rx         0748  0  RTR
  1019)      4313.5  Rx         0768  0  RTR
  1020)      4314.2  Rx         0748  1  05 
  1021)      4318.8  Rx         0768  1  85 
  1022)      4323.2  Rx         0300  8  46 80 00 00 00 00 00 00 
  1023)      4333.3  Rx         0287  8  86 00 00 00 00 00 00 00 
  1024)      4342.9  Rx         0709  0  RTR
  1025)      4343.2  Rx         0709  1  85 
  1026)      4343.4  Rx         0749  0  RTR
  1027)      4343.5  Rx         0769  0  RTR
  1028)      4347.1  Rx         0769  1  85 
  1029)      4348.0  Rx         0749  1  85 
  1030)      4372.9  Rx         070A  0  RTR
  1031)      4373.2  Rx         070A  1  05 
  1032)      4373.4  Rx         074A  0  RTR
  1033)      4373.6  Rx         076A  0  RTR
  1034)      4374.0  Rx         0300  8  47 80 00 00 00 00 00 00 
  1035)      4375.2  Rx         076A  1  85 
  1036)      4381.4  Rx         0288  8  87 00 00 00 00 00 00 00 
  1037)      4402.9  Rx         070B  0  RTR
  1038)      4403.2  Rx         070B  1  05 
  1039)      4403.4  Rx         074B  0  RTR
  1040)      4403.6  Rx         076B  0  RTR
  1041)      4406.7  Rx         074B  1  85 
  1042)      4409.4  Rx         076B  1  85 
  1043)      4423.2  Rx         0300  8  48 80 00 00 00 00 00 00 
  1044)      4426.5  Rx         0289  8  88 00 00 00 00 00 00 00 
  1045)      4432.9  Rx         070C  0  RTR
  1046)      4433.1  Rx         074C  0  RTR
  1047)      4433.3  Rx         076C  0  RTR
  1048)      4433.9  Rx         070C  1  05 
  1049)      4436.1  Rx         074C  1  85 
  1050)      4442.5  Rx         076C  1  85 
  1051)      4463.0  Rx         070D  0  RTR
  1052)      4463.2  Rx         070D  1  05 
  1053)      4463.3  Rx         074D  0  RTR
  1054)      4463.6  Rx         076D  0  RTR
  1055)      4464.2  Rx         074D  1  85 
  1056)      4469.6  Rx         076D  1  85 
  1057)      4473.2  Rx         0300  8  49 80 00 00 00 00 00 00 
  1058)      4479.1  Rx         028A  8  89 00 00 00 00 00 00 00 
  1059)      4493.0  Rx         070E  0  RTR
  1060)      4493.2  Rx         070E  1  85 
  1061)      4493.3  Rx         074E  0  RTR
  1062)      4493.5  Rx         076E  0  RTR
  1063)      4494.0  Rx         074E  1  05 
  1064)      4502.8  Rx         076E  1  85 
  1065)      4522.9  Rx         070F  0  RTR
  1066)      4523.2  Rx         074F  0  RTR
  1067)      4523.3  Rx         076F  0  RTR
  1068)      4523.8  Rx         0300  8  4A 80 00 00 00 00 00 00 
  1069)      4524.1  Rx         070F  1  85 
  1070)      4526.1  Rx         074F  1  85 
  1071)      4528.4  Rx         028B  8  8A 00 00 00 00 00 00 00 
  1072)      4528.8  Rx         076F  1  85 
  1073)      4552.9  Rx         0710  0  RTR
  1074)      4553.2  Rx         0750  0  RTR
  1075)      4553.4  Rx         0710  1  85 
  1076)      4553.5  Rx         0770  0  RTR
  1077)      4555.1  Rx         0750  1  05 
  1078)      4558.6  Rx         0770  1  85 
  1079)      4573.2  Rx         0300  8  4B 80 00 00 00 00 00 00 
  1080)      4578.9  Rx         028C  8  8B 00 00 00 00 00 00 00 
  1081)      4582.9  Rx         0711  0  RTR
  1082)      4583.2  Rx         0711  1  85 
  1083)      4583.4  Rx         0751  0  RTR
  1084)      4583.6  Rx         0771  0  RTR
  1085)      4588.6  Rx         0751  1  85 
  1086)      4592.9  Rx         0771  1  85 
  1087)      4612.9  Rx         0712  0  RTR
  1088)      4613.1  Rx         0752  0  RTR
  1089)      4613.4  Rx         0712  1  05 
  1090)      4613.6  Rx         0772  0  RTR
  1091)      4616.6  Rx         0772  1  85 
  1092)      4617.7  Rx         0752  1  85 
  1093)      4623.3  Rx         0300  8  4C 80 00 00 00 00 00 00 
  1094)      4632.3  Rx         028D  8  8C 00 00 00 00 00 00 00 
  1095)      4643.0  Rx         0713  0  RTR
  1096)      4643.2  Rx         0713  1  05 
  1097)      4643.3  Rx         0753  0  RTR
  1098)      4643.6  Rx         0773  0  RTR
  1099)      4646.0  Rx         0753  1  85 
  1100)      4653.2  Rx         0773  1  85 
  1101)      4673.0  Rx         0714  0  RTR
  1102)      4673.2  Rx         0714  1  05 
  1103)      4673.4  Rx         0774  0  RTR
  1104)      4673.9  Rx         0300  8  4D 80 00 00 00 00 00 00 
  1105)      4680.4  Rx         0774  1  85 
  1106)      4681.0  Rx         028E  8  8D 00 00 00 00 00 00 00 
  1107)      4702.9  Rx         0701  0  RTR
  1108)      4703.2  Rx         0701  1  05 
  1109)      4703.4  Rx         0741  0  RTR
  1110)      4705.1  Rx         0741  1  85 
  1111)      4723.3  Rx         0300  8  4E 80 00 00 00 00 00 00 
  1112)      4730.0  Rx         028F  8  CE 11 00 14 04 19 00 01 
  1113)      4732.9  Rx         0702  0  RTR
  1114)      4733.2  Rx         0702  1  85 
  1115)      4733.4  Rx         0742  0  RTR
  1116)      4733.6  Rx         0761  0  RTR
  1117)      4735.7  Rx         0742  1  85 
  1118)      4741.1  Rx         0761  1  05 
  1119)      4762.9  Rx         0703  0  RTR
  1120)      4763.1  Rx         0743  0  RTR
  1121)      4763.4  Rx         0703  1  85 
  1122)      4763.6  Rx         0762  0  RTR
  1123)      4765.1  Rx         0743  1  85 
  1124)      4768.2  Rx         0762  1  05 
  1125)      4773.3  Rx         0300  8  4F 80 00 00 00 00 00 00 
  1126)      4779.9  Rx         0290  8  8F 00 00 00 00 00 00 00 
  1127)      4793.0  Rx         0704  0  RTR
  1128)      4793.2  Rx         0704  1  85 
  1129)      4793.4  Rx         0744  0  RTR
  1130)      4793.6  Rx         0763  0  RTR
  1131)      4797.8  Rx         0763  1  05 
  1132)      4798.0  Rx         0744  1  05 
  1133)      4823.0  Rx         0705  0  RTR
  1134)      4823.2  Rx         0705  1  85 
  1135)      4823.4  Rx         0745  0  RTR
  1136)      4823.6  Rx         0764  0  RTR
  1137)      4824.1  Rx         0300  8  50 80 00 00 00 00 00 00 
  1138)      4828.2  Rx         0745  1  85 
  1139)      4829.1  Rx         0291  8  90 00 00 00 00 00 00 00 
  1140)      4829.3  Rx         0764  1  05 
  1141)      4853.0  Rx         0706  0  RTR
  1142)      4853.2  Rx         0706  1  05 
  1143)      4853.4  Rx         0746  0  RTR
  1144)      4853.6  Rx         0765  0  RTR
  1145)      4856.5  Rx         0746  1  05 
  1146)      4860.2  Rx         0765  1  05 
  1147)      4873.3  Rx         0300  8  51 80 00 00 00 00 00 00 
  1148)      4873.6  Rx         0260  4  1F CA 01 00 
  1149)      4882.1  Rx         0292  8  91 00 00 00 00 00 00 00 
  1150)      4883.0  Rx         0707  0  RTR
  1151)      4883.2  Rx         0707  1  05 
  1152)      4883.4  Rx         0747  0  RTR
  1153)      4883.6  Rx         0766  0  RTR
  1154)      4885.2  Rx         0747  1  85 
  1155)      4892.1  Rx         0766  1  05 
  1156)      4912.9  Rx         0708  0  RTR
  1157)      4913.2  Rx         0748  0  RTR
  1158)      4913.4  Rx         0708  1  05 
  1159)      4913.6  Rx         0767  0  RTR
  1160)      4914.1  Rx         0748  1  85 
  1161)      4918.2  Rx         0767  1  05 
  1162)      4923.2  Rx         0300  8  52 80 00 00 00 00 00 00 
  1163)      4927.7  Rx         0293  8  92 00 00 00 00 00 00 00 
  1164)      4942.9  Rx         0709  0  RTR
  1165)      4943.2  Rx         0709  1  05 
  1166)      4943.4  Rx         0749  0  RTR
  1167)      4943.6  Rx         0768  0  RTR
  1168)      4947.9  Rx         0749  1  05 
  1169)      4948.5  Rx         0768  1  05 
  1170)      4973.0  Rx         070A  0  RTR
  1171)      4973.1  Rx         074A  0  RTR
  1172)      4973.4  Rx         0769  0  RTR
  1173)      4973.8  Rx         0300  8  53 80 00 00 00 00 00 00 
  1174)      4974.0  Rx         070A  1  85 
  1175)      4977.1  Rx         0769  1  05 
  1176)      4977.3  Rx         074A  1  85 
  1177)      4979.6  Rx         0294  8  93 00 00 00 00 00 00 00 
  1178)      5003.0  Rx         070B  0  RTR
  1179)      5003.2  Rx         070B  1  85 
  1180)      5003.4  Rx         074B  0  RTR
  1181)      5003.6  Rx         076A  0  RTR
  1182)      5005.2  Rx         076A  1  05 
  1183)      5006.7  Rx         074B  1  05 
  1184)      5023.2  Rx         0300  8  40 80 00 00 00 00 00 00 
  1185)      5027.2  Rx         0281  8  80 00 00 00 00 00 00 00 
  1186)      5033.0  Rx         070C  0  RTR
  1187)      5033.2  Rx         070C  1  85 
  1188)      5033.3  Rx         074C  0  RTR
  1189)      5033.6  Rx         076B  0  RTR
  1190)      5036.1  Rx         074C  1  05 
  1191)      5039.4  Rx         076B  1  05 
  1192)      5055.6  Rx         0260  4  0D 23 AD 05 
  1193)      5057.0  Rx         034E  8  2D 25 AD 05 00 00 00 00 
  1194)      5063.0  Rx         070D  0  RTR
  1195)      5063.2  Rx         070D  1  85 
  1196)      5063.4  Rx         074D  0  RTR
  1197)      5063.6  Rx         076C  0  RTR
  1198)      5064.2  Rx         074D  1  05 
  1199)      5072.5  Rx         076C  1  05 
  1200)      5073.3  Rx         0300  8  41 80 00 00 00 00 00 00 
  1201)      5083.6  Rx         0282  8  81 00 00 00 00 00 00 00 
  1202)      5093.0  Rx         070E  0  RTR
  1203)      5093.2  Rx         070E  1  05 
  1204)      5093.4  Rx         074E  0  RTR
  1205)      5093.6  Rx         076D  0  RTR
  1206)      5094.0  Rx         074E  1  85 
  1207)      5099.6  Rx         076D  1  05 
  1208)      5122.9  Rx         070F  0  RTR
  1209)      5123.2  Rx         070F  1  05 
  1210)      5123.4  Rx         074F  0  RTR
  1211)      5123.6  Rx         076E  0  RTR
  1212)      5124.1  Rx         0300  8  42 80 00 00 00 00 00 00 
  1213)      5126.1  Rx         074F  1  05 
  1214)      5132.8  Rx         076E  1  05 
  1215)      5133.6  Rx         0283  8  82 00 00 00 00 00 00 00 
  1216)      5152.9  Rx         0710  0  RTR
  1217)      5153.2  Rx         0750  0  RTR
  1218)      5153.4  Rx         0710  1  05 
  1219)      5153.6  Rx         076F  0  RTR
  1220)      5155.1  Rx         0750  1  85 
  1221)      5158.8  Rx         076F  1  05 
  1222)      5173.2  Rx         0300  8  43 80 00 00 00 00 00 00 
  1223)      5179.6  Rx         0284  8  83 00 00 00 00 00 00 00 
  1224)      5183.0  Rx         0711  0  RTR
  1225)      5183.2  Rx         0711  1  05 
  1226)      5183.4  Rx         0751  0  RTR
  1227)      5183.6  Rx         0770  0  RTR
  1228)      5188.6  Rx         0751  1  05 
  1229)      5188.8  Rx         0770  1  05 
  1230)      5213.0  Rx         0712  0  RTR
  1231)      5213.1  Rx         0752  0  RTR
  1232)      5213.4  Rx         0771  0  RTR
  1233)      5213.9  Rx         0712  1  85 
  1234)      5217.7  Rx         0752  1  05 
  1235)      5222.9  Rx         0771  1  05 
  1236)      5223.4  Rx         0300  8  44 80 00 00 00 00 00 00 
  1237)      5229.1  Rx         01EF  4  0E 58 05 00 
  1238)      5231.1  Rx         0285  8  84 00 00 00 00 00 00 00 
  1239)      5243.0  Rx         0713  0  RTR
  1240)      5243.2  Rx         0713  1  85 
  1241)      5243.4  Rx         0753  0  RTR
  1242)      5243.6  Rx         0772  0  RTR
  1243)      5246.0  Rx         0753  1  05 
  1244)      5246.7  Rx         0772  1  05 
  1245)      5273.0  Rx         0714  0  RTR
  1246)      5273.2  Rx         0714  1  85 
  1247)      5273.4  Rx         0773  0  RTR
  1248)      5273.9  Rx         0300  8  45 80 00 00 00 00 00 00 
  1249)      5276.0  Rx         0286  8  85 00 00 00 00 00 00 00 
  1250)      5283.2  Rx         0773  1  05 
  1251)      5302.9  Rx         0701  0  RTR
  1252)      5303.2  Rx         0701  1  85 
  1253)      5303.4  Rx         0741  0  RTR
  1254)      5303.6  Rx         0774  0  RTR
  1255)      5305.1  Rx         0741  1  05 
  1256)      5310.4  Rx         0774  1  05 
  1257)      5323.3  Rx         0300  8  46 80 00 00 00 00 00 00 
  1258)      5332.9  Rx         0287  8  86 00 00 00 00 00 00 00 
  1259)      5333.1  Rx         0702  0  RTR
  1260)      5333.3  Rx         0702  1  05 
  1261)      5333.5  Rx         0742  0  RTR
  1262)      5335.7  Rx         0742  1  05 
  1263)      5363.0  Rx         0703  0  RTR
  1264)      5363.2  Rx         0703  1  05 
  1265)      5363.4  Rx         0743  0  RTR
  1266)      5363.6  Rx         0761  0  RTR
  1267)      5365.1  Rx         0743  1  05 
  1268)      5371.1  Rx         0761  1  85 
  1269)      5373.3  Rx         0300  8  47 80 00 00 00 00 00 00 
  1270)      5381.4  Rx         0288  8  87 00 00 00 00 00 00 00 
  1271)      5393.0  Rx         0704  0  RTR
  1272)      5393.2  Rx         0704  1  05 
  1273)      5393.4  Rx         0744  0  RTR
  1274)      5393.6  Rx         0762  0  RTR
  1275)      5397.9  Rx         0744  1  85 
  1276)      5398.2  Rx         0762  1  85 
  1277)      5423.0  Rx         0705  0  RTR
  1278)      5423.2  Rx         0745  0  RTR
  1279)      5423.3  Rx         0763  0  RTR
  1280)      5423.9  Rx         0300  8  48 80 00 00 00 00 00 00 
  1281)      5424.1  Rx         0705  1  05 
  1282)      5426.4  Rx         0289  8  88 00 00 00 00 00 00 00 
  1283)      5427.8  Rx         0763  1  85 
  1284)      5428.2  Rx         0745  1  05 
  1285)      5453.0  Rx         0706  0  RTR
  1286)      5453.2  Rx         0706  1  85 
  1287)      5453.4  Rx         0746  0  RTR
  1288)      5453.6  Rx         0764  0  RTR
  1289)      5456.5  Rx         0746  1  85 
  1290)      5458.9  Rx         0764  1  85 
  1291)      5473.3  Rx         0300  8  49 80 00 00 00 00 00 00 
  1292)      5478.8  Rx         028A  8  89 00 00 00 00 00 00 00 
  1293)      5483.0  Rx         0707  0  RTR
  1294)      5483.2  Rx         0707  1  85 
  1295)      5483.4  Rx         0747  0  RTR
  1296)      5483.6  Rx         0765  0  RTR
  1297)      5485.2  Rx         0747  1  05 
  1298)      5490.2  Rx         0765  1  85 
  1299)      5513.0  Rx         0708  0  RTR
  1300)      5513.2  Rx         0708  1  85 
  1301)      5513.4  Rx         0748  0  RTR
  1302)      5513.6  Rx         0766  0  RTR
  1303)      5514.1  Rx         0748  1  05 
  1304)      5522.1  Rx         0766  1  85 
  1305)      5523.3  Rx         0300  8  4A 80 00 00 00 00 00 00 
  1306)      5528.3  Rx         028B  8  8A 00 00 00 00 00 00 00 
  1307)      5543.0  Rx         0709  0  RTR
  1308)      5543.2  Rx         0709  1  85 
  1309)      5543.4  Rx         0749  0  RTR
  1310)      5543.6  Rx         0767  0  RTR
  1311)      5547.9  Rx         0749  1  85 
  1312)      5548.2  Rx         0767  1  85 
  1313)      5573.0  Rx         070A  0  RTR
  1314)      5573.2  Rx         074A  0  RTR
  1315)      5573.4  Rx         0768  0  RTR
  1316)      5573.9  Rx         0300  8  4B 80 00 00 00 00 00 00 
  1317)      5574.1  Rx         070A  1  05 
  1318)      5577.2  Rx         074A  1  05 
  1319)      5578.5  Rx         0768  1  85 
  1320)      5579.0  Rx         028C  8  8B 00 00 00 00 00 00 00 
  1321)      5603.0  Rx         070B  0  RTR
  1322)      5603.2  Rx         074B  0  RTR
  1323)      5603.4  Rx         070B  1  05 
  1324)      5603.6  Rx         0769  0  RTR
  1325)      5606.7  Rx         074B  1  85 
  1326)      5607.3  Rx         0769  1  85 
  1327)      5623.3  Rx         0300  8  4C 80 00 00 00 00 00 00 
  1328)      5632.3  Rx         028D  8  8C 00 00 00 00 00 00 00 
  1329)      5633.0  Rx         070C  0  RTR
  1330)      5633.2  Rx         074C  0  RTR
  1331)      5633.3  Rx         076A  0  RTR
  1332)      5633.6  Rx         070C  1  05 
  1333)      5635.2  Rx         076A  1  85 
  1334)      5636.1  Rx         074C  1  85 
  1335)      5663.0  Rx         070D  0  RTR
  1336)      5663.2  Rx         074D  0  RTR
  1337)      5663.4  Rx         070D  1  05 
  1338)      5663.6  Rx         076B  0  RTR
  1339)      5664.1  Rx         074D  1  85 
  1340)      5669.4  Rx         076B  1  85 
  1341)      5673.3  Rx         0300  8  4D 80 00 00 00 00 00 00 
  1342)      5681.0  Rx         028E  8  8D 00 00 00 00 00 00 00 
  1343)      5693.0  Rx         070E  0  RTR
  1344)      5693.2  Rx         070E  1  85 
  1345)      5693.4  Rx         074E  0  RTR
  1346)      5693.6  Rx         076C  0  RTR
  1347)      5694.0  Rx         074E  1  05 
  1348)      5702.5  Rx         076C  1  85 
  1349)      5723.0  Rx         070F  0  RTR
  1350)      5723.2  Rx         070F  1  85 
  1351)      5723.4  Rx         074F  0  RTR
  1352)      5723.6  Rx         076D  0  RTR
  1353)      5724.1  Rx         0300  8  4E 80 00 00 00 00 00 00 
  1354)      5726.1  Rx         074F  1  85 
  1355)      5729.6  Rx         076D  1  85 
  1356)      5730.1  Rx         028F  8  8E 00 00 00 00 00 00 00 
  1357)      5753.0  Rx         0710  0  RTR
  1358)      5753.2  Rx         0710  1  85 
  1359)      5753.4  Rx         0750  0  RTR
  1360)      5753.6  Rx         076E  0  RTR
  1361)      5755.1  Rx         0750  1  05 
  1362)      5762.8  Rx         076E  1  85 
  1363)      5773.3  Rx         0300  8  4F 80 00 00 00 00 00 00 
  1364)      5779.9  Rx         0290  8  8F 00 00 00 00 00 00 00 
  1365)      5783.0  Rx         0711  0  RTR
  1366)      5783.2  Rx         0711  1  85 
  1367)      5783.4  Rx         0751  0  RTR
  1368)      5783.6  Rx         076F  0  RTR
  1369)      5788.5  Rx         0751  1  85 
  1370)      5788.9  Rx         076F  1  85 
  1371)      5813.0  Rx         0712  0  RTR
  1372)      5813.2  Rx         0712  1  05 
  1373)      5813.4  Rx         0752  0  RTR
  1374)      5813.6  Rx         0770  0  RTR
  1375)      5817.6  Rx         0752  1  85 
  1376)      5818.6  Rx         0770  1  85 
  1377)      5823.3  Rx         0300  8  50 80 00 00 00 00 00 00 
  1378)      5829.1  Rx         0291  8  90 00 00 00 00 00 00 00 
  1379)      5843.0  Rx         0713  0  RTR
  1380)      5843.2  Rx         0713  1  05 
  1381)      5843.4  Rx         0753  0  RTR
  1382)      5843.6  Rx         0771  0  RTR
  1383)      5846.0  Rx         0753  1  85 
  1384)      5852.9  Rx         0771  1  85 
  1385)      5873.0  Rx         0714  0  RTR
  1386)      5873.2  Rx         0714  1  05 
  1387)      5873.4  Rx         0772  0  RTR
  1388)      5873.9  Rx         0300  8  51 80 00 00 00 00 00 00 
  1389)      5876.7  Rx         0772  1  85 
  1390)      5882.0  Rx         0292  8  91 00 00 00 00 00 00 00 
  1391)      5903.0  Rx         0701  0  RTR
  1392)      5903.2  Rx         0701  1  05 
  1393)      5903.4  Rx         0741  0  RTR
  1394)      5903.6  Rx         0773  0  RTR
  1395)      5905.1  Rx         0741  1  85 
  1396)      5913.1  Rx         0773  1  85 
  1397)      5923.3  Rx         0300  8  52 80 00 00 00 00 00 00 
  1398)      5927.6  Rx         0293  8  92 00 00 00 00 00 00 00 
  1399)      5933.0  Rx         0702  0  RTR
  1400)      5933.2  Rx         0702  1  85 
  1401)      5933.4  Rx         0742  0  RTR
  1402)      5933.6  Rx         0774  0  RTR
  1403)      5935.7  Rx         0742  1  85 
  1404)      5940.4  Rx         0774  1  85 
  1405)      5963.0  Rx         0703  0  RTR
  1406)      5963.2  Rx         0743  0  RTR
  1407)      5963.9  Rx         0703  1  85 
  1408)      5965.1  Rx         0743  1  85 
  1409)      5973.3  Rx         0300  8  53 80 00 00 00 00 00 00 
  1410)      5979.6  Rx         0294  8  93 00 00 00 00 00 00 00 
  1411)      5993.0  Rx         0704  0  RTR
  1412)      5993.2  Rx         0704  1  85 
  1413)      5993.4  Rx         0744  0  RTR
  1414)      5993.6  Rx         0761  0  RTR
  1415)      5997.9  Rx         0744  1  05 
  1416)      6001.2  Rx         0761  1  05 
  1417)      6023.0  Rx         0705  0  RTR
  1418)      6023.2  Rx         0745  0  RTR
  1419)      6023.4  Rx         0762  0  RTR
  1420)      6023.9  Rx         0300  8  40 80 00 00 00 00 00 00 
  1421)      6024.1  Rx         0705  1  85 
  1422)      6027.1  Rx         0281  8  80 00 00 00 00 00 00 00 
  1423)      6028.2  Rx         0745  1  85 
  1424)      6028.4  Rx         0762  1  05 
  1425)      6053.0  Rx         0706  0  RTR
  1426)      6053.2  Rx         0706  1  05 
  1427)      6053.4  Rx         0746  0  RTR
  1428)      6053.6  Rx         0763  0  RTR
  1429)      6055.6  Rx         0260  4  07 23 CA 08 
  1430)      6056.7  Rx         0348  8  27 25 CA 08 00 00 00 00 
  1431)      6056.9  Rx         0746  1  05 
  1432)      6057.8  Rx         0763  1  05 
  1433)      6073.3  Rx         0300  8  41 80 00 00 00 00 00 00 
  1434)      6083.0  Rx         0707  0  RTR
  1435)      6083.2  Rx         0747  0  RTR
  1436)      6083.7  Rx         0282  8  C1 5F 0E 00 31 00 0A 05 
  1437)      6083.9  Rx         0707  1  05 
  1438)      6084.1  Rx         0764  0  RTR
  1439)      6085.2  Rx         0747  1  85 
  1440)      6088.9  Rx         0764  1  05 
  1441)      6113.0  Rx         0708  0  RTR
  1442)      6113.3  Rx         0708  1  05 
  1443)      6113.4  Rx         0748  0  RTR
  1444)      6113.6  Rx         0765  0  RTR
  1445)      6114.2  Rx         0748  1  85 
  1446)      6120.2  Rx         0765  1  05 
  1447)      6123.3  Rx         0300  8  42 80 00 00 00 00 00 00 
  1448)      6134.2  Rx         0283  8  82 00 00 00 00 00 00 00 
  1449)      6143.0  Rx         0709  0  RTR
  1450)      6143.3  Rx         0709  1  05 
  1451)      6143.4  Rx         0749  0  RTR
  1452)      6143.6  Rx         0766  0  RTR
  1453)      6147.9  Rx         0749  1  05 
  1454)      6152.1  Rx         0766  1  05 
  1455)      6173.0  Rx         070A  0  RTR
  1456)      6173.2  Rx         074A  0  RTR
  1457)      6173.4  Rx         070A  1  85 
  1458)      6173.6  Rx         0767  0  RTR
  1459)      6174.1  Rx         0300  8  43 80 00 00 00 00 00 00 
  1460)      6177.3  Rx         074A  1  85 
  1461)      6178.2  Rx         0767  1  05 
  1462)      6179.6  Rx         0284  8  83 00 00 00 00 00 00 00 
  1463)      6203.0  Rx         070B  0  RTR
  1464)      6203.2  Rx         070B  1  85 
  1465)      6203.4  Rx         074B  0  RTR
  1466)      6203.6  Rx         0768  0  RTR
  1467)      6206.7  Rx         074B  1  05 
  1468)      6208.5  Rx         0768  1  05 
  1469)      6223.3  Rx         0300  8  44 80 00 00 00 00 00 00 
  1470)      6230.7  Rx         0285  8  84 00 00 00 00 00 00 00 
  1471)      6233.0  Rx         070C  0  RTR
  1472)      6233.2  Rx         070C  1  85 
  1473)      6233.4  Rx         074C  0  RTR
  1474)      6233.6  Rx         0769  0  RTR
  1475)      6236.1  Rx         074C  1  05 
  1476)      6237.2  Rx         0769  1  05 
  1477)      6263.0  Rx         070D  0  RTR
  1478)      6263.2  Rx         074D  0  RTR
  1479)      6263.4  Rx         070D  1  85 
  1480)      6263.6  Rx         076A  0  RTR
  1481)      6264.1  Rx         074D  1  05 
  1482)      6265.2  Rx         076A  1  05 
  1483)      6273.3  Rx         0300  8  45 80 00 00 00 00 00 00 
  1484)      6276.0  Rx         0286  8  85 00 00 00 00 00 00 00 
  1485)      6293.0  Rx         070E  0  RTR
  1486)      6293.3  Rx         070E  1  05 
  1487)      6293.4  Rx         074E  0  RTR
  1488)      6293.6  Rx         076B  0  RTR
  1489)      6294.0  Rx         074E  1  85 
  1490)      6299.5  Rx         076B  1  05 
  1491)      6323.0  Rx         070F  0  RTR
  1492)      6323.2  Rx         074F  0  RTR
  1493)      6323.4  Rx         076C  0  RTR
  1494)      6323.9  Rx         0300  8  46 80 00 00 00 00 00 00 
  1495)      6324.2  Rx         070F  1  05 
  1496)      6326.1  Rx         074F  1  05 
  1497)      6332.5  Rx         076C  1  05 
  1498)      6333.0  Rx         0287  8  86 00 00 00 00 00 00 00 
  1499)      6353.0  Rx         0710  0  RTR
  1500)      6353.2  Rx         0750  0  RTR
  1501)      6353.4  Rx         076D  0  RTR
  1502)      6353.7  Rx         0710  1  05 
  1503)      6355.1  Rx         0750  1  85 
  1504)      6359.6  Rx         076D  1  05 
  1505)      6373.3  Rx         0300  8  47 80 00 00 00 00 00 00 
  1506)      6381.3  Rx         0288  8  87 00 00 00 00 00 00 00 
  1507)      6383.0  Rx         0711  0  RTR
  1508)      6383.2  Rx         0711  1  05 
  1509)      6383.4  Rx         0751  0  RTR
  1510)      6383.6  Rx         076E  0  RTR
  1511)      6388.5  Rx         0751  1  05 
  1512)      6392.8  Rx         076E  1  05 
  1513)      6413.0  Rx         0712  0  RTR
  1514)      6413.2  Rx         0752  0  RTR
  1515)      6413.4  Rx         076F  0  RTR
  1516)      6413.6  Rx         0712  1  85 
  1517)      6417.6  Rx         0752  1  05 
  1518)      6418.9  Rx         076F  1  05 
  1519)      6423.3  Rx         0300  8  48 80 00 00 00 00 00 00 
  1520)      6426.4  Rx         0289  8  88 00 00 00 00 00 00 00 
  1521)      6443.0  Rx         0713  0  RTR
  1522)      6443.2  Rx         0713  1  85 
  1523)      6443.4  Rx         0753  0  RTR
  1524)      6443.6  Rx         0770  0  RTR
  1525)      6446.0  Rx         0753  1  05 
  1526)      6448.7  Rx         0770  1  05 
  1527)      6473.0  Rx         0714  0  RTR
  1528)      6473.2  Rx         0714  1  85 
  1529)      6473.4  Rx         0771  0  RTR
  1530)      6474.0  Rx         0300  8  49 80 00 00 00 00 00 00 
  1531)      6478.8  Rx         028A  8  89 00 00 00 00 00 00 00 
  1532)      6483.0  Rx         0771  1  05 
  1533)      6503.0  Rx         0701  0  RTR
  1534)      6503.3  Rx         0701  1  85 
  1535)      6503.4  Rx         0741  0  RTR
  1536)      6503.6  Rx         0772  0  RTR
  1537)      6505.1  Rx         0741  1  05 
  1538)      6506.7  Rx         0772  1  05 
  1539)      6523.8  Rx         0300  8  4A 80 00 00 00 00 00 00 
  1540)      6528.3  Rx         028B  8  8A 00 00 00 00 00 00 00 
  1541)      6533.0  Rx         0702  0  RTR
  1542)      6533.3  Rx         0702  1  05 
  1543)      6533.5  Rx         0742  0  RTR
  1544)      6533.6  Rx         0773  0  RTR
  1545)      6543.2  Rx         0773  1  05 
  1546)      6563.0  Rx         0703  0  RTR
  1547)      6563.2  Rx         0743  0  RTR
  1548)      6563.4  Rx         0774  0  RTR
  1549)      6563.7  Rx         0703  1  05 
  1550)      6565.1  Rx         0743  1  05 
  1551)      6570.4  Rx         0774  1  05 
  1552)      6573.3  Rx         0300  8  4B 80 00 00 00 00 00 00 
  1553)      6579.0  Rx         028C  8  8B 00 00 00 00 00 00 00 
  1554)      6593.0  Rx         0704  0  RTR
  1555)      6593.3  Rx         0704  1  05 
  1556)      6593.5  Rx         0744  0  RTR
  1557)      6597.9  Rx         0744  1  85 
  1558)      6623.0  Rx         0705  0  RTR
  1559)      6623.2  Rx         0745  0  RTR
  1560)      6623.4  Rx         0705  1  05 
  1561)      6623.7  Rx         0761  0  RTR
  1562)      6624.1  Rx         0300  8  4C 80 00 00 00 00 00 00 
  1563)      6628.1  Rx         0745  1  05 
  1564)      6631.2  Rx         0761  1  85 
  1565)      6632.3  Rx         028D  8  8C 00 00 00 00 00 00 00 
  1566)      6653.0  Rx         0706  0  RTR
  1567)      6653.3  Rx         0706  1  85 
  1568)      6653.4  Rx         0746  0  RTR
  1569)      6653.7  Rx         0762  0  RTR
  1570)      6656.5  Rx         0746  1  85 
  1571)      6658.3  Rx         0762  1  85 
  1572)      6673.3  Rx         0300  8  4D 80 00 00 00 00 00 00 
  1573)      6680.9  Rx         028E  8  8D 00 00 00 00 00 00 00 
  1574)      6683.0  Rx         0707  0  RTR
  1575)      6683.3  Rx         0707  1  85 
  1576)      6683.4  Rx         0747  0  RTR
  1577)      6683.6  Rx         0763  0  RTR
  1578)      6685.2  Rx         0747  1  05 
  1579)      6687.8  Rx         0763  1  85 
  1580)      6713.0  Rx         0708  0  RTR
  1581)      6713.3  Rx         0708  1  85 
  1582)      6713.4  Rx         0748  0  RTR
  1583)      6713.6  Rx         0764  0  RTR
  1584)      6714.1  Rx         0748  1  05 
  1585)      6718.9  Rx         0764  1  85 
  1586)      6723.3  Rx         0300  8  4E 80 00 00 00 00 00 00 
  1587)      6730.1  Rx         028F  8  8E 00 00 00 00 00 00 00 
  1588)      6743.0  Rx         0709  0  RTR
  1589)      6743.2  Rx         0749  0  RTR
  1590)      6743.4  Rx         0709  1  85 
  1591)      6743.6  Rx         0765  0  RTR
  1592)      6747.9  Rx         0749  1  85 
  1593)      6750.2  Rx         0765  1  85 
  1594)      6773.0  Rx         070A  0  RTR
  1595)      6773.2  Rx         074A  0  RTR
  1596)      6773.5  Rx         070A  1  05 
  1597)      6773.6  Rx         0766  0  RTR
  1598)      6774.1  Rx         0300  8  4F 80 00 00 00 00 00 00 
  1599)      6777.2  Rx         074A  1  05 
  1600)      6780.0  Rx         0290  8  4F 41 F0 00 00 00 EF 00 
  1601)      6782.1  Rx         0766  1  85 
  1602)      6789.9  Rx         0290  8  4F 5A 01 00 F5 FF 00 00 
  1603)      6799.9  Rx         0290  8  4F 5A 02 00 00 00 00 00 
  1604)      6803.0  Rx         070B  0  RTR
  1605)      6803.2  Rx         070B  1  05 
  1606)      6803.5  Rx         074B  0  RTR
  1607)      6803.6  Rx         0767  0  RTR
  1608)      6806.7  Rx         074B  1  85 
  1609)      6808.2  Rx         0767  1  85 
  1610)      6809.9  Rx         0290  8  4F 5A 03 00 00 00 00 00 
  1611)      6819.8  Rx         0290  8  CF 5A 04 00 23 16 F4 15 
  1612)      6823.3  Rx         0300  8  50 80 00 00 00 00 00 00 
  1613)      6829.0  Rx         0291  8  90 00 00 00 00 00 00 00 
  1614)      6833.0  Rx         070C  0  RTR
  1615)      6833.2  Rx         074C  0  RTR
  1616)      6833.4  Rx         070C  1  05 
  1617)      6833.6  Rx         0768  0  RTR
  1618)      6836.0  Rx         074C  1  85 
  1619)      6838.5  Rx         0768  1  85 
  1620)      6863.1  Rx         070D  0  RTR
  1621)      6863.3  Rx         070D  1  05 
  1622)      6863.4  Rx         074D  0  RTR
  1623)      6863.7  Rx         0769  0  RTR
  1624)      6864.1  Rx         074D  1  85 
  1625)      6867.1  Rx         0769  1  85 
  1626)      6873.3  Rx         0300  8  51 80 00 00 00 00 00 00 
  1627)      6873.7  Rx         0260  4  1F CA 01 00 
  1628)      6882.0  Rx         0292  8  91 00 00 00 00 00 00 00 
  1629)      6893.0  Rx         070E  0  RTR
  1630)      6893.3  Rx         070E  1  85 
  1631)      6893.4  Rx         074E  0  RTR
  1632)      6893.6  Rx         076A  0  RTR
  1633)      6893.9  Rx         074E  1  05 
  1634)      6895.2  Rx         076A  1  85 
  1635)      6923.0  Rx         070F  0  RTR
  1636)      6923.2  Rx         074F  0  RTR
  1637)      6923.5  Rx         070F  1  85 
  1638)      6923.6  Rx         076B  0  RTR
  1639)      6924.2  Rx         0300  8  52 80 00 00 00 00 00 00 
  1640)      6926.0  Rx         074F  1  85 
  1641)      6927.6  Rx         0293  8  92 00 00 00 00 00 00 00 
  1642)      6929.5  Rx         076B  1  85 
  1643)      6953.0  Rx         0710  0  RTR
  1644)      6953.3  Rx         0710  1  85 
  1645)      6953.5  Rx         0750  0  RTR
  1646)      6953.6  Rx         076C  0  RTR
  1647)      6955.1  Rx         0750  1  05 
  1648)      6962.5  Rx         076C  1  85 
  1649)      6973.3  Rx         0300  8  53 80 00 00 00 00 00 00 
  1650)      6979.5  Rx         0294  8  93 00 00 00 00 00 00 00 
  1651)      6983.0  Rx         0711  0  RTR
  1652)      6983.2  Rx         0711  1  85 
  1653)      6983.5  Rx         0751  0  RTR
  1654)      6983.6  Rx         076D  0  RTR
  1655)      6988.5  Rx         0751  1  85 
  1656)      6990.1  Rx         076D  1  85 
  1657)      7013.0  Rx         0712  0  RTR
  1658)      7013.2  Rx         0712  1  05 
  1659)      7013.5  Rx         0752  0  RTR
  1660)      7013.7  Rx         076E  0  RTR
  1661)      7017.6  Rx         0752  1  85 
  1662)      7022.8  Rx         076E  1  85 
  1663)      7023.3  Rx         0300  8  40 80 00 00 00 00 00 00 
  1664)      7027.1  Rx         0281  8  80 00 00 00 00 00 00 00 
  1665)      7043.0  Rx         0713  0  RTR
  1666)      7043.3  Rx         0713  1  05 
  1667)      7043.4  Rx         0753  0  RTR
  1668)      7043.7  Rx         076F  0  RTR
  1669)      7046.0  Rx         0753  1  85 
  1670)      7048.9  Rx         076F  1  85 
  1671)      7056.6  Rx         0260  4  0C 23 DE 05 
  1672)      7057.7  Rx         034D  8  2C 25 DE 05 00 00 00 00 
  1673)      7073.1  Rx         0714  0  RTR
  1674)      7073.3  Rx         0714  1  05 
  1675)      7073.5  Rx         0770  0  RTR
  1676)      7073.9  Rx         0300  8  41 80 00 00 00 00 00 00 
  1677)      7078.7  Rx         0770  1  85 
  1678)      7083.6  Rx         0282  8  81 00 00 00 00 00 00 00 
  1679)      7103.1  Rx         0701  0  RTR
  1680)      7103.3  Rx         0701  1  05 
  1681)      7103.5  Rx         0741  0  RTR
  1682)      7103.6  Rx         0771  0  RTR
  1683)      7105.1  Rx         0741  1  85 
  1684)      7112.9  Rx         0771  1  85 
  1685)      7123.4  Rx         0300  8  42 80 00 00 00 00 00 00 
  1686)      7133.0  Rx         0702  0  RTR
  1687)      7133.3  Rx         0742  0  RTR
  1688)      7133.5  Rx         0702  1  85 
  1689)      7133.9  Rx         0283  8  C2 5F 0E 00 25 00 01 05 
  1690)      7134.2  Rx         0772  0  RTR
  1691)      7135.6  Rx         0742  1  85 
  1692)      7136.7  Rx         0772  1  85 
  1693)      7163.0  Rx         0703  0  RTR
  1694)      7163.3  Rx         0743  0  RTR
  1695)      7163.5  Rx         0703  1  85 
  1696)      7163.7  Rx         0773  0  RTR
  1697)      7165.1  Rx         0743  1  85 
  1698)      7173.9  Rx         0300  8  43 80 00 00 00 00 00 00 
  1699)      7174.1  Rx         0773  1  85 
  1700)      7179.6  Rx         0284  8  83 00 00 00 00 00 00 00 
  1701)      7193.0  Rx         0704  0  RTR
  1702)      7193.3  Rx         0704  1  85 
  1703)      7193.5  Rx         0744  0  RTR
  1704)      7193.7  Rx         0774  0  RTR
  1705)      7197.9  Rx         0744  1  05 
  1706)      7200.5  Rx         0774  1  85 
  1707)      7223.0  Rx         0705  0  RTR
  1708)      7223.2  Rx         0745  0  RTR
  1709)      7223.8  Rx         0300  8  44 80 00 00 00 00 00 00 
  1710)      7224.0  Rx         0705  1  85 
  1711)      7228.1  Rx         0745  1  85 
  1712)      7230.7  Rx         0285  8  84 00 00 00 00 00 00 00 
  1713)      7253.1  Rx         0706  0  RTR
  1714)      7253.3  Rx         0706  1  05 
  1715)      7253.5  Rx         0746  0  RTR
  1716)      7253.7  Rx         0761  0  RTR
  1717)      7256.5  Rx         0746  1  05 
  1718)      7261.2  Rx         0761  1  05 
  1719)      7273.3  Rx         0300  8  45 80 00 00 00 00 00 00 
  1720)      7276.0  Rx         0286  8  85 00 00 00 00 00 00 00 
  1721)      7283.1  Rx         0707  0  RTR
  1722)      7283.3  Rx         0707  1  05 
  1723)      7283.5  Rx         0747  0  RTR
  1724)      7283.7  Rx         0762  0  RTR
  1725)      7285.2  Rx         0747  1  85 
  1726)      7288.3  Rx         0762  1  05 
  1727)      7313.0  Rx         0708  0  RTR
  1728)      7313.3  Rx         0708  1  05 
  1729)      7313.5  Rx         0748  0  RTR
  1730)      7313.6  Rx         0763  0  RTR
  1731)      7314.1  Rx         0748  1  85 
  1732)      7317.8  Rx         0763  1  05 
  1733)      7323.3  Rx         0300  8  46 80 00 00 00 00 00 00 
  1734)      7332.8  Rx         0287  8  86 00 00 00 00 00 00 00 
  1735)      7343.0  Rx         0709  0  RTR
  1736)      7343.3  Rx         0709  1  05 
  1737)      7343.5  Rx         0749  0  RTR
  1738)      7343.6  Rx         0764  0  RTR
  1739)      7347.9  Rx         0749  1  05 
  1740)      7349.0  Rx         0764  1  05 
  1741)      7373.0  Rx         070A  0  RTR
  1742)      7373.3  Rx         070A  1  85 
  1743)      7373.5  Rx         074A  0  RTR
  1744)      7373.7  Rx         0765  0  RTR
  1745)      7374.1  Rx         0300  8  47 80 00 00 00 00 00 00 
  1746)      7377.2  Rx         074A  1  85 
  1747)      7380.2  Rx         0765  1  05 
  1748)      7381.3  Rx         0288  8  87 00 00 00 00 00 00 00 
  1749)      7403.0  Rx         070B  0  RTR
  1750)      7403.3  Rx         070B  1  85 
  1751)      7403.5  Rx         074B  0  RTR
  1752)      7403.7  Rx         0766  0  RTR
  1753)      7406.7  Rx         074B  1  05 
  1754)      7412.1  Rx         0766  1  05 
  1755)      7423.3  Rx         0300  8  48 80 00 00 00 00 00 00 
  1756)      7426.3  Rx         0289  8  88 00 00 00 00 00 00 00 
  1757)      7433.1  Rx         070C  0  RTR
  1758)      7433.2  Rx         074C  0  RTR
  1759)      7433.4  Rx         0767  0  RTR
  1760)      7434.0  Rx         070C  1  85 
  1761)      7436.1  Rx         074C  1  05 
  1762)      7438.3  Rx         0767  1  05 
  1763)      7463.1  Rx         070D  0  RTR
  1764)      7463.3  Rx         070D  1  85 
  1765)      7463.5  Rx         074D  0  RTR
  1766)      7463.7  Rx         0768  0  RTR
  1767)      7464.1  Rx         074D  1  05 
  1768)      7468.6  Rx         0768  1  05 
  1769)      7473.3  Rx         0300  8  49 80 00 00 00 00 00 00 
  1770)      7479.1  Rx         028A  8  89 00 00 00 00 00 00 00 
  1771)      7493.1  Rx         070E  0  RTR
  1772)      7493.2  Rx         074E  0  RTR
  1773)      7493.5  Rx         070E  1  05 
  1774)      7493.6  Rx         0769  0  RTR
  1775)      7493.9  Rx         074E  1  85 
  1776)      7497.1  Rx         0769  1  05 
  1777)      7523.0  Rx         070F  0  RTR
  1778)      7523.3  Rx         074F  0  RTR
  1779)      7523.4  Rx         076A  0  RTR
  1780)      7523.9  Rx         0300  8  4A 80 00 00 00 00 00 00 
  1781)      7524.2  Rx         070F  1  05 
  1782)      7525.2  Rx         076A  1  05 
  1783)      7526.0  Rx         074F  1  05 
  1784)      7528.2  Rx         028B  8  8A 00 00 00 00 00 00 00 
  1785)      7553.0  Rx         0710  0  RTR
  1786)      7553.3  Rx         0750  0  RTR
  1787)      7553.5  Rx         0710  1  05 
  1788)      7553.7  Rx         076B  0  RTR
  1789)      7555.0  Rx         0750  1  85 
  1790)      7559.5  Rx         076B  1  05 
  1791)      7573.3  Rx         0300  8  4B 80 00 00 00 00 00 00 
  1792)      7579.0  Rx         028C  8  8B 00 00 00 00 00 00 00 
  1793)      7583.0  Rx         0711  0  RTR
  1794)      7583.3  Rx         0711  1  05 
  1795)      7583.5  Rx         0751  0  RTR
  1796)      7583.7  Rx         076C  0  RTR
  1797)      7588.5  Rx         0751  1  05 
  1798)      7592.5  Rx         076C  1  05 
  1799)      7613.1  Rx         0712  0  RTR
  1800)      7613.2  Rx         0752  0  RTR
  1801)      7613.5  Rx         0712  1  85 
  1802)      7613.7  Rx         076D  0  RTR
  1803)      7617.6  Rx         0752  1  05 
  1804)      7619.6  Rx         076D  1  05 
  1805)      7623.4  Rx         0300  8  4C 80 00 00 00 00 00 00 
  1806)      7632.2  Rx         028D  8  8C 00 00 00 00 00 00 00 
  1807)      7643.1  Rx         0713  0  RTR
  1808)      7643.3  Rx         0713  1  85 
  1809)      7643.5  Rx         0753  0  RTR
  1810)      7643.7  Rx         076E  0  RTR
  1811)      7646.0  Rx         0753  1  05 
  1812)      7652.8  Rx         076E  1  05 
  1813)      7673.1  Rx         0714  0  RTR
  1814)      7673.3  Rx         0714  1  85 
  1815)      7673.5  Rx         076F  0  RTR
  1816)      7674.0  Rx         0300  8  4D 80 00 00 00 00 00 00 
  1817)      7678.9  Rx         076F  1  05 
  1818)      7680.9  Rx         028E  8  8D 00 00 00 00 00 00 00 
  1819)      7703.0  Rx         0701  0  RTR
  1820)      7703.3  Rx         0701  1  85 
  1821)      7703.5  Rx         0741  0  RTR
  1822)      7703.7  Rx         0770  0  RTR
  1823)      7705.1  Rx         0741  1  05 
  1824)      7708.6  Rx         0770  1  05 
  1825)      7723.4  Rx         0300  8  4E 80 00 00 00 00 00 00 
  1826)      7730.1  Rx         028F  8  8E 00 00 00 00 00 00 00 
  1827)      7733.0  Rx         0702  0  RTR
  1828)      7733.3  Rx         0702  1  05 
  1829)      7733.5  Rx         0742  0  RTR
  1830)      7733.7  Rx         0771  0  RTR
  1831)      7735.6  Rx         0742  1  05 
  1832)      7743.0  Rx         0771  1  05 
  1833)      7763.1  Rx         0703  0  RTR
  1834)      7763.2  Rx         0743  0  RTR
  1835)      7763.5  Rx         0703  1  05 
  1836)      7763.7  Rx         0772  0  RTR
  1837)      7765.0  Rx         0743  1  05 
  1838)      7766.7  Rx         0772  1  05 
  1839)      7773.4  Rx         0300  8  4F 80 00 00 00 00 00 00 
  1840)      7779.9  Rx         0290  8  4F 5A 1F 00 05 00 05 00 
  1841)      7789.9  Rx         0290  8  4F 5A 20 00 05 00 00 00 
  1842)      7793.1  Rx         0704  0  RTR
  1843)      7793.3  Rx         0704  1  05 
  1844)      7793.5  Rx         0744  0  RTR
  1845)      7793.7  Rx         0773  0  RTR
  1846)      7797.8  Rx         0744  1  85 
  1847)      7799.9  Rx         0290  8  4F 5A 21 00 03 02 FE 01 
  1848)      7803.2  Rx         0773  1  05 
  1849)      7809.9  Rx         0290  8  4F 5A 15 00 F5 FF E6 FF 
  1850)      7819.9  Rx         0290  8  CF 5A 16 00 EC FF 00 00 
  1851)      7823.1  Rx         0705  0  RTR
  1852)      7823.3  Rx         0705  1  05 
  1853)      7823.5  Rx         0745  0  RTR
  1854)      7823.7  Rx         0774  0  RTR
  1855)      7824.2  Rx         0300  8  50 80 00 00 00 00 00 00 
  1856)      7828.1  Rx         0745  1  05 
  1857)      7829.0  Rx         0291  8  90 00 00 00 00 00 00 00 
  1858)      7830.4  Rx         0774  1  05 
  1859)      7853.1  Rx         0706  0  RTR
  1860)      7853.3  Rx         0706  1  85 
  1861)      7853.5  Rx         0746  0  RTR
  1862)      7856.4  Rx         0746  1  85 
  1863)      7873.2  Rx         0000  2  81 54 
  1864)      7873.6  Rx         0300  8  51 80 00 00 00 00 00 00 
  1865)      7882.0  Rx         0292  8  91 00 00 00 00 00 00 00 
  1866)      7883.1  Rx         0707  0  RTR
  1867)      7883.3  Rx         0707  1  85 
  1868)      7883.5  Rx         0747  0  RTR
  1869)      7883.7  Rx         0761  0  RTR
  1870)      7885.1  Rx         0747  1  05 
  1871)      7891.2  Rx         0761  1  85 
  1872)      7913.0  Rx         0708  0  RTR
  1873)      7913.3  Rx         0708  1  85 
  1874)      7913.5  Rx         0748  0  RTR
  1875)      7913.7  Rx         0762  0  RTR
  1876)      7914.1  Rx         0748  1  05 
  1877)      7918.3  Rx         0762  1  85 
  1878)      7923.4  Rx         0300  8  52 80 00 00 00 00 00 00 
  1879)      7927.6  Rx         0293  8  92 00 00 00 00 00 00 00 
  1880)      7943.1  Rx         0709  0  RTR
  1881)      7943.3  Rx         0709  1  85 
  1882)      7943.5  Rx         0749  0  RTR
  1883)      7943.7  Rx         0763  0  RTR
  1884)      7947.8  Rx         0763  1  85 
  1885)      7948.0  Rx         0749  1  85 
  1886)      7973.1  Rx         070A  0  RTR
  1887)      7973.2  Rx         074A  0  RTR
  1888)      7973.5  Rx         0764  0  RTR
  1889)      7974.0  Rx         0300  8  53 80 00 00 00 00 00 00 
  1890)      7974.2  Rx         070A  1  05 
  1891)      7977.2  Rx         074A  1  05 
  1892)      7979.0  Rx         0764  1  85 
  1893)      7979.5  Rx         0294  8  93 00 00 00 00 00 00 00 
  1894)      8003.1  Rx         070B  0  RTR
  1895)      8003.3  Rx         070B  1  05 
  1896)      8003.5  Rx         074B  0  RTR
  1897)      8003.7  Rx         0765  0  RTR
  1898)      8006.6  Rx         074B  1  85 
  1899)      8010.2  Rx         0765  1  85 
  1900)      8023.4  Rx         0300  8  40 80 00 00 00 00 00 00 
  1901)      8027.1  Rx         0281  8  80 00 00 00 00 00 00 00 
  1902)      8033.1  Rx         070C  0  RTR
  1903)      8033.3  Rx         070C  1  05 
  1904)      8033.5  Rx         074C  0  RTR
  1905)      8033.7  Rx         0766  0  RTR
  1906)      8042.1  Rx         0766  1  85 
  1907)      8056.6  Rx         0260  4  08 23 E1 16 
  1908)      8057.3  Rx         0349  8  28 25 E1 16 00 00 00 00 
  1909)      8063.1  Rx         070D  0  RTR
  1910)      8063.3  Rx         070D  1  05 
  1911)      8063.5  Rx         074D  0  RTR
  1912)      8063.7  Rx         0767  0  RTR
  1913)      8064.0  Rx         074D  1  85 
  1914)      8068.3  Rx         0767  1  85 
  1915)      8073.4  Rx         0300  8  41 80 00 00 00 00 00 00 
  1916)      8083.5  Rx         0282  8  81 00 00 00 00 00 00 00 
  1917)      8093.0  Rx         070E  0  RTR
  1918)      8093.3  Rx         070E  1  85 
  1919)      8093.5  Rx         074E  0  RTR
  1920)      8093.7  Rx         0768  0  RTR
  1921)      8093.9  Rx         074E  1  05 
  1922)      8098.6  Rx         0768  1  85 
  1923)      8123.1  Rx         070F  0  RTR
  1924)      8123.3  Rx         070F  1  85 
  1925)      8123.5  Rx         074F  0  RTR
  1926)      8123.7  Rx         0769  0  RTR
  1927)      8124.2  Rx         0300  8  42 80 00 00 00 00 00 00 
  1928)      8126.0  Rx         074F  1  85 
  1929)      8127.1  Rx         0769  1  85 
  1930)      8133.5  Rx         0283  8  82 00 00 00 00 00 00 00 
  1931)      8153.1  Rx         0710  0  RTR
  1932)      8153.3  Rx         0710  1  85 
  1933)      8153.5  Rx         0750  0  RTR
  1934)      8153.7  Rx         076A  0  RTR
  1935)      8155.0  Rx         0750  1  05 
  1936)      8155.3  Rx         076A  1  85 
  1937)      8173.4  Rx         0300  8  43 80 00 00 00 00 00 00 
  1938)      8179.5  Rx         0284  8  83 00 00 00 00 00 00 00 
  1939)      8183.1  Rx         0711  0  RTR
  1940)      8183.3  Rx         0711  1  85 
  1941)      8183.5  Rx         0751  0  RTR
  1942)      8183.7  Rx         076B  0  RTR
  1943)      8188.5  Rx         0751  1  85 
  1944)      8189.6  Rx         076B  1  85 
  1945)      8213.1  Rx         0712  0  RTR
  1946)      8213.3  Rx         0752  0  RTR
  1947)      8213.5  Rx         076C  0  RTR
  1948)      8214.0  Rx         0712  1  05 
  1949)      8217.5  Rx         0752  1  85 
  1950)      8222.5  Rx         076C  1  85 
  1951)      8223.4  Rx         0300  8  44 80 00 00 00 00 00 00 
  1952)      8231.1  Rx         0285  8  84 00 00 00 00 00 00 00 
  1953)      8243.1  Rx         0713  0  RTR
  1954)      8243.3  Rx         0713  1  05 
  1955)      8243.5  Rx         0753  0  RTR
  1956)      8243.7  Rx         076D  0  RTR
  1957)      8245.9  Rx         0753  1  85 
  1958)      8249.6  Rx         076D  1  85 
  1959)      8273.1  Rx         0714  0  RTR
  1960)      8273.3  Rx         076E  0  RTR
  1961)      8273.8  Rx         0300  8  45 80 00 00 00 00 00 00 
  1962)      8274.0  Rx         0714  1  05 
  1963)      8275.9  Rx         0286  8  85 00 00 00 00 00 00 00 
  1964)      8282.9  Rx         076E  1  85 
  1965)      8303.1  Rx         0701  0  RTR
  1966)      8303.3  Rx         0701  1  05 
  1967)      8303.5  Rx         0741  0  RTR
  1968)      8303.7  Rx         076F  0  RTR
  1969)      8305.0  Rx         0741  1  85 
  1970)      8308.9  Rx         076F  1  85 
  1971)      8323.4  Rx         0300  8  46 80 00 00 00 00 00 00 
  1972)      8332.7  Rx         0287  8  86 00 00 00 00 00 00 00 
  1973)      8333.1  Rx         0702  0  RTR
  1974)      8333.3  Rx         0742  0  RTR
  1975)      8333.5  Rx         0702  1  85 
  1976)      8333.7  Rx         0770  0  RTR
  1977)      8335.6  Rx         0742  1  85 
  1978)      8338.7  Rx         0770  1  85 
  1979)      8363.1  Rx         0703  0  RTR
  1980)      8363.3  Rx         0703  1  85 
  1981)      8363.5  Rx         0743  0  RTR
  1982)      8363.7  Rx         0771  0  RTR
  1983)      8365.0  Rx         0743  1  85 
  1984)      8373.0  Rx         0771  1  85 
  1985)      8373.5  Rx         0300  8  47 80 00 00 00 00 00 00 
  1986)      8381.2  Rx         0288  8  87 00 00 00 00 00 00 00 
  1987)      8393.1  Rx         0704  0  RTR
  1988)      8393.3  Rx         0704  1  85 
  1989)      8393.5  Rx         0744  0  RTR
  1990)      8393.7  Rx         0772  0  RTR
  1991)      8396.7  Rx         0772  1  85 
  1992)      8397.8  Rx         0744  1  05 
  1993)      8423.1  Rx         0705  0  RTR
  1994)      8423.3  Rx         0745  0  RTR
  1995)      8423.4  Rx         0773  0  RTR
